time	V(n001)	V(n002)
0.000000000000000e+000	0.000000e+000	0.000000e+000
2.806743076187864e-008	8.817644e-004	8.269299e-004
5.613486152375728e-008	1.763529e-003	1.599219e-003
8.420229228563591e-008	2.645293e-003	2.316868e-003
1.122697230475146e-007	3.527057e-003	2.979875e-003
1.403371538093932e-007	4.408821e-003	3.588243e-003
1.684045845712718e-007	5.290585e-003	4.141969e-003
1.964720153331504e-007	6.172349e-003	4.641055e-003
2.824929239064858e-007	8.874772e-003	5.981201e-003
4.057459293512758e-007	1.274687e-002	7.414481e-003
5.590683751147096e-007	1.756361e-002	8.641841e-003
7.731100981276877e-007	2.428787e-002	9.702916e-003
1.052627276496340e-006	3.306902e-002	1.047738e-002
1.459058736177077e-006	4.583704e-002	1.106663e-002
2.051933790243806e-006	6.446162e-002	1.161680e-002
3.055318403552583e-006	9.597977e-002	1.273814e-002
4.954957730079473e-006	1.556394e-001	1.773740e-002
7.947990660067902e-006	2.495897e-001	3.777087e-002
1.123485420257610e-005	3.526603e-001	8.143322e-002
1.455943487085054e-005	4.567604e-001	1.475085e-001
1.846568487085054e-005	5.788159e-001	2.415693e-001
2.237193487085054e-005	7.005228e-001	3.439219e-001
2.627818487085054e-005	8.218077e-001	4.507922e-001
3.799693487085054e-005	1.182401e+000	7.828388e-001
4.580943487085055e-005	1.420722e+000	1.009404e+000
5.362193487085056e-005	1.654249e+000	1.232472e+000
6.143443487085057e-005	1.882980e+000	1.452042e+000
6.924693487085058e-005	2.106916e+000	1.668115e+000
7.705943487085059e-005	2.326057e+000	1.880690e+000
8.487193487085061e-005	2.540404e+000	2.089768e+000
9.268443487085059e-005	2.749955e+000	2.295348e+000
1.066353277279935e-004	3.110491e+000	2.649071e+000
1.205862205851363e-004	3.441460e+000	2.974044e+000
1.345371134422792e-004	3.742863e+000	3.270265e+000
1.484880062994221e-004	4.014700e+000	3.537736e+000
1.624388991565650e-004	4.256970e+000	3.776455e+000
1.763897920137078e-004	4.469674e+000	3.986423e+000
1.903406848708507e-004	4.652812e+000	4.167641e+000
2.143362205851364e-004	4.871437e+000	4.383514e+000
2.383317562994222e-004	4.980682e+000	4.491413e+000
2.623272920137079e-004	4.980547e+000	4.491339e+000
2.863228277279937e-004	4.871031e+000	4.383291e+000
3.103183634422794e-004	4.652135e+000	4.167269e+000
3.343138991565651e-004	4.323859e+000	3.843274e+000
3.583094348708508e-004	3.886202e+000	3.411305e+000
3.694701491565651e-004	3.652870e+000	3.181031e+000
3.806308634422795e-004	3.404844e+000	2.937026e+000
3.917915777279937e-004	3.142123e+000	2.679290e+000
4.029522920137080e-004	2.864709e+000	2.407822e+000
4.141130062994223e-004	2.572600e+000	2.122623e+000
4.252737205851366e-004	2.265798e+000	1.823693e+000
4.364344348708509e-004	1.944302e+000	1.511031e+000
4.414567562994224e-004	1.797620e+000	1.368642e+000
4.464790777279938e-004	1.649522e+000	1.226052e+000
4.515013991565652e-004	1.500006e+000	1.083260e+000
4.565237205851366e-004	1.349073e+000	9.402664e-001
4.615460420137081e-004	1.196724e+000	7.970711e-001
4.665683634422795e-004	1.042957e+000	6.536741e-001
4.715906848708509e-004	8.877729e-001	5.100754e-001
4.754969348708509e-004	7.667491e-001	4.014247e-001
4.794031848708509e-004	6.452634e-001	2.958928e-001
4.833094348708509e-004	5.233890e-001	1.960679e-001
4.872156848708509e-004	4.011993e-001	1.074046e-001
4.911219348708509e-004	2.787680e-001	4.010764e-002
4.950281848708510e-004	1.561688e-001	2.351362e-003
4.985218521915005e-004	4.643672e-002	-9.511963e-003
5.007266447568554e-004	-2.282814e-002	-1.073614e-002
5.028251660665646e-004	-8.875055e-002	-1.054716e-002
5.106376660665646e-004	-3.339434e-001	-9.298269e-003
5.145439160665646e-004	-4.562750e-001	-8.784198e-003
5.223564160665646e-004	-7.000400e-001	-7.963465e-003
5.301689160665646e-004	-9.421187e-001	-7.325306e-003
5.418876660665647e-004	-1.300800e+000	-6.572873e-003
5.502582017808504e-004	-1.554452e+000	-6.153648e-003
5.586287374951361e-004	-1.802140e+000	-5.762773e-003
5.669992732094218e-004	-2.043867e+000	-5.400247e-003
5.753698089237076e-004	-2.279631e+000	-5.066071e-003
5.837403446379933e-004	-2.509433e+000	-4.760245e-003
5.921108803522790e-004	-2.733272e+000	-4.482768e-003
6.004814160665647e-004	-2.951149e+000	-4.233641e-003
6.166644517808504e-004	-3.353271e+000	-3.763338e-003
6.328474874951361e-004	-3.712773e+000	-3.305352e-003
6.490305232094220e-004	-4.029653e+000	-2.859682e-003
6.652135589237077e-004	-4.303911e+000	-2.426328e-003
6.813965946379934e-004	-4.535548e+000	-2.005291e-003
6.975796303522791e-004	-4.724563e+000	-1.596571e-003
7.137626660665648e-004	-4.870957e+000	-1.200167e-003
7.355260589237077e-004	-4.973421e+000	-6.664531e-004
7.572894517808505e-004	-4.987279e+000	-1.265698e-004
7.790528446379935e-004	-4.912531e+000	4.194835e-004
8.008162374951364e-004	-4.749177e+000	9.717066e-004
8.225796303522792e-004	-4.497217e+000	1.530100e-003
8.443430232094221e-004	-4.156650e+000	2.094663e-003
8.661064160665649e-004	-3.727478e+000	2.665395e-003
8.767090946379936e-004	-3.494407e+000	2.946816e-003
8.873117732094221e-004	-3.248723e+000	3.249472e-003
8.979144517808507e-004	-2.990427e+000	3.573365e-003
9.085171303522793e-004	-2.719519e+000	3.918494e-003
9.191198089237079e-004	-2.435998e+000	4.284859e-003
9.297224874951365e-004	-2.139866e+000	4.672460e-003
9.403251660665650e-004	-1.831121e+000	5.081298e-003
9.453474874951364e-004	-1.683037e+000	5.289458e-003
9.503698089237079e-004	-1.533653e+000	5.524603e-003
9.553921303522793e-004	-1.382969e+000	5.786731e-003
9.604144517808507e-004	-1.230985e+000	6.075844e-003
9.654367732094222e-004	-1.077700e+000	6.391941e-003
9.704590946379936e-004	-9.231155e-001	6.735021e-003
9.754814160665650e-004	-7.672309e-001	7.105086e-003
9.832939160665649e-004	-5.238739e-001	7.832044e-003
9.872001660665649e-004	-4.016853e-001	8.276594e-003
9.911064160665649e-004	-2.792548e-001	8.800623e-003
9.950126660665650e-004	-1.566561e-001	9.456614e-003
9.989189160665650e-004	-3.396299e-002	1.054624e-002
1.002825166066565e-003	8.875055e-002	1.440842e-002
1.006731416066565e-003	2.114106e-001	2.949397e-002
1.010093649434590e-003	3.168888e-001	6.433007e-002
1.013665880662918e-003	4.287989e-001	1.286751e-001
1.017572130662918e-003	5.509239e-001	2.191891e-001
1.021478380662918e-003	6.727169e-001	3.199751e-001
1.025384630662918e-003	7.941048e-001	4.260252e-001
1.033197130662918e-003	1.035373e+000	6.457061e-001
1.039335523520061e-003	1.223898e+000	8.229001e-001
1.045473916377204e-003	1.409922e+000	9.987913e-001
1.051612309234347e-003	1.593445e+000	1.173380e+000
1.057750702091490e-003	1.774467e+000	1.346666e+000
1.063889094948632e-003	1.952988e+000	1.518649e+000
1.070027487805776e-003	2.129008e+000	1.689329e+000
1.076165880662918e-003	2.302526e+000	1.858707e+000
1.088442666377204e-003	2.642013e+000	2.190419e+000
1.100719452091490e-003	2.961392e+000	2.502888e+000
1.112996237805776e-003	3.260664e+000	2.796112e+000
1.125273023520061e-003	3.539829e+000	3.070092e+000
1.137549809234347e-003	3.798886e+000	3.324828e+000
1.149826594948633e-003	4.037835e+000	3.560319e+000
1.162103380662918e-003	4.256677e+000	3.776567e+000
1.190005166377204e-003	4.650130e+000	4.165033e+000
1.217906952091490e-003	4.895628e+000	4.407444e+000
1.245808737805776e-003	4.993172e+000	4.503797e+000
1.273710523520061e-003	4.942762e+000	4.454094e+000
1.301612309234347e-003	4.744397e+000	4.258335e+000
1.329514094948633e-003	4.398077e+000	3.916519e+000
1.357415880662919e-003	3.903804e+000	3.428647e+000
1.368576594948633e-003	3.671976e+000	3.199850e+000
1.379737309234347e-003	3.425344e+000	2.957194e+000
1.390898023520061e-003	3.163909e+000	2.700678e+000
1.402058737805776e-003	2.887670e+000	2.430304e+000
1.413219452091490e-003	2.596628e+000	2.146070e+000
1.424380166377204e-003	2.290782e+000	1.847977e+000
1.435540880662919e-003	1.970133e+000	1.536025e+000
1.440563202091490e-003	1.823786e+000	1.393929e+000
1.445585523520061e-003	1.675996e+000	1.251541e+000
1.450607844948633e-003	1.526761e+000	1.108860e+000
1.455630166377204e-003	1.376083e+000	9.658864e-001
1.460652487805776e-003	1.223960e+000	8.226203e-001
1.465674809234347e-003	1.070394e+000	6.790618e-001
1.470697130662919e-003	9.153846e-001	5.352107e-001
1.474603380662919e-003	7.944766e-001	4.260677e-001
1.478509630662919e-003	6.730902e-001	3.196182e-001
1.482415880662919e-003	5.512982e-001	2.181017e-001
1.486322130662919e-003	4.291742e-001	1.261895e-001
1.490228380662919e-003	3.067916e-001	5.302067e-002
1.494134630662919e-003	1.842243e-001	8.738228e-003
1.498040880662919e-003	6.154599e-002	-8.681062e-003
1.500268234034515e-003	-8.426817e-003	-1.071842e-002
1.502431794873508e-003	-7.639412e-002	-1.059612e-002
1.509033884565279e-003	-2.836555e-001	-9.535061e-003
1.512940134565279e-003	-4.060786e-001	-8.985539e-003
1.516846384565279e-003	-5.282571e-001	-8.516905e-003
1.524658884565279e-003	-7.715860e-001	-7.759959e-003
1.532471384565279e-003	-1.013056e+000	-7.161261e-003
1.544190134565279e-003	-1.370505e+000	-6.445115e-003
1.553118705993850e-003	-1.639947e+000	-6.016781e-003
1.562047277422421e-003	-1.902233e+000	-5.616887e-003
1.570975848850993e-003	-2.157363e+000	-5.245433e-003
1.579904420279564e-003	-2.405336e+000	-4.902421e-003
1.588832991708136e-003	-2.646152e+000	-4.587849e-003
1.597761563136707e-003	-2.879813e+000	-4.301717e-003
1.606690134565279e-003	-3.106317e+000	-4.044026e-003
1.623431205993850e-003	-3.508410e+000	-3.568831e-003
1.640172277422422e-003	-3.863448e+000	-3.104591e-003
1.656913348850993e-003	-4.171430e+000	-2.651307e-003
1.673654420279565e-003	-4.432356e+000	-2.208979e-003
1.690395491708136e-003	-4.646228e+000	-1.777606e-003
1.707136563136707e-003	-4.813043e+000	-1.357188e-003
1.723877634565279e-003	-4.932803e+000	-9.477264e-004
1.744524955993850e-003	-4.990870e+000	-4.421444e-004
1.765172277422422e-003	-4.969871e+000	6.997386e-005
1.785819598850993e-003	-4.869806e+000	5.886283e-004
1.806466920279565e-003	-4.690674e+000	1.113819e-003
1.827114241708136e-003	-4.432475e+000	1.645546e-003
1.847761563136708e-003	-4.095210e+000	2.183809e-003
1.868408884565279e-003	-3.678879e+000	2.728608e-003
1.879011563136708e-003	-3.442317e+000	3.010940e-003
1.889614241708136e-003	-3.193406e+000	3.315934e-003
1.900216920279565e-003	-2.932147e+000	3.643591e-003
1.910819598850993e-003	-2.658539e+000	3.993909e-003
1.921422277422422e-003	-2.372582e+000	4.366890e-003
1.932024955993850e-003	-2.074277e+000	4.762533e-003
1.942627634565279e-003	-1.763623e+000	5.180838e-003
1.947649955993850e-003	-1.614751e+000	5.393917e-003
1.952672277422422e-003	-1.464648e+000	5.636937e-003
1.957694598850993e-003	-1.313314e+000	5.909896e-003
1.962716920279565e-003	-1.160751e+000	6.212795e-003
1.967739241708136e-003	-1.006956e+000	6.545634e-003
1.972761563136707e-003	-8.519311e-001	6.908412e-003
1.977783884565279e-003	-6.956755e-001	7.301130e-003
1.985596384565279e-003	-4.518855e-001	8.085920e-003
1.989502634565279e-003	-3.295454e-001	8.573866e-003
1.993408884565279e-003	-2.070068e-001	9.164030e-003
1.997315134565279e-003	-8.434354e-002	9.991321e-003
2.001221384565279e-003	3.837055e-002	1.208622e-002
2.005127634565279e-003	1.610615e-001	2.156968e-002
2.009033884565279e-003	2.836555e-001	5.250205e-002
2.012932812697472e-003	4.058493e-001	1.140964e-001
2.016550251225960e-003	5.190049e-001	1.939565e-001
2.020456501225960e-003	6.408919e-001	2.929113e-001
2.024362751225960e-003	7.623928e-001	3.978633e-001
2.032175251225960e-003	1.003944e+000	6.166456e-001
2.038313644083103e-003	1.192746e+000	7.936986e-001
2.044452036940246e-003	1.379093e+000	9.695571e-001
2.050590429797389e-003	1.562983e+000	1.144221e+000
2.056728822654532e-003	1.744417e+000	1.317691e+000
2.062867215511675e-003	1.923395e+000	1.489966e+000
2.069005608368818e-003	2.099917e+000	1.661046e+000
2.075144001225960e-003	2.273983e+000	1.830932e+000
2.087420786940246e-003	2.614710e+000	2.163762e+000
2.099697572654532e-003	2.935470e+000	2.477502e+000
2.111974358368818e-003	3.236261e+000	2.772154e+000
2.124251144083103e-003	3.517085e+000	3.047715e+000
2.136527929797389e-003	3.777940e+000	3.304188e+000
2.148804715511675e-003	4.018828e+000	3.541571e+000
2.161081501225961e-003	4.239748e+000	3.759864e+000
2.188983286940246e-003	4.638639e+000	4.153701e+000
2.216885072654532e-003	4.889520e+000	4.401424e+000
2.244786858368818e-003	4.992392e+000	4.503033e+000
2.272688644083103e-003	4.947254e+000	4.458529e+000
2.300590429797389e-003	4.754106e+000	4.267910e+000
2.328492215511675e-003	4.412949e+000	3.931178e+000
2.356394001225961e-003	3.923782e+000	3.448331e+000
2.367554715511675e-003	3.693683e+000	3.221232e+000
2.378715429797389e-003	3.448656e+000	2.980129e+000
2.389876144083104e-003	3.188701e+000	2.725022e+000
2.401036858368818e-003	2.913817e+000	2.455910e+000
2.412197572654532e-003	2.624006e+000	2.172795e+000
2.423358286940246e-003	2.319266e+000	1.875675e+000
2.434519001225961e-003	1.999599e+000	1.564551e+000
2.439541322654532e-003	1.853640e+000	1.422793e+000
2.444563644083104e-003	1.706207e+000	1.280645e+000
2.449585965511675e-003	1.557299e+000	1.138107e+000
2.454608286940246e-003	1.406918e+000	9.951787e-001
2.459630608368818e-003	1.255061e+000	8.518602e-001
2.464652929797389e-003	1.101731e+000	7.081516e-001
2.469675251225961e-003	9.469262e-001	5.640528e-001
2.473581501225961e-003	8.261555e-001	4.544170e-001
2.477487751225961e-003	7.048872e-001	3.471126e-001
2.481394001225961e-003	5.831942e-001	2.440134e-001
2.485300251225961e-003	4.611499e-001	1.489193e-001
2.489206501225961e-003	3.388279e-001	6.969765e-002
2.493112751225961e-003	2.163018e-001	1.729156e-002
2.497019001225961e-003	9.364536e-002	-6.721845e-003
2.499327589706838e-003	2.112433e-002	-1.049212e-002
2.501556031875880e-003	-4.888340e-002	-1.069034e-002
2.503710916032949e-003	-1.165713e-001	-1.042810e-002
2.507617166032949e-003	-2.392090e-001	-9.756848e-003
2.511523416032949e-003	-3.617026e-001	-9.174980e-003
2.515429666032949e-003	-4.839783e-001	-8.678033e-003
2.523242166032949e-003	-7.275816e-001	-7.883243e-003
2.531054666032949e-003	-9.694322e-001	-7.260979e-003
2.542773416032949e-003	-1.327649e+000	-6.523136e-003
2.551143951747235e-003	-1.580874e+000	-6.109566e-003
2.559514487461521e-003	-1.828068e+000	-5.723525e-003
2.567885023175807e-003	-2.069230e+000	-5.365011e-003
2.576255558890092e-003	-2.304361e+000	-5.034026e-003
2.584626094604378e-003	-2.533461e+000	-4.730569e-003
2.592996630318664e-003	-2.756529e+000	-4.454639e-003
2.601367166032949e-003	-2.973565e+000	-4.206238e-003
2.617550201747235e-003	-3.373840e+000	-3.737468e-003
2.633733237461521e-003	-3.731338e+000	-3.280754e-003
2.649916273175807e-003	-4.046058e+000	-2.836096e-003
2.666099308890092e-003	-4.318001e+000	-2.403494e-003
2.682282344604378e-003	-4.547165e+000	-1.982949e-003
2.698465380318664e-003	-4.733553e+000	-1.574460e-003
2.714648416032950e-003	-4.877162e+000	-1.178027e-003
2.736411808890092e-003	-4.975699e+000	-6.445348e-004
2.758175201747235e-003	-4.985757e+000	-1.046970e-004
2.779938594604378e-003	-4.907337e+000	4.414860e-004
2.801701987461521e-003	-4.740439e+000	9.940142e-004
2.823465380318664e-003	-4.485062e+000	1.552888e-003
2.845228773175807e-003	-4.141207e+000	2.118106e-003
2.866992166032950e-003	-3.708874e+000	2.689670e-003
2.877594844604378e-003	-3.474454e+000	2.971439e-003
2.888197523175807e-003	-3.227523e+000	3.274980e-003
2.898800201747235e-003	-2.968080e+000	3.600293e-003
2.909402880318664e-003	-2.696127e+000	3.947377e-003
2.920005558890092e-003	-2.411662e+000	4.316232e-003
2.930608237461521e-003	-2.114686e+000	4.706859e-003
2.941210916032950e-003	-1.805199e+000	5.119258e-003
2.946233237461521e-003	-1.656808e+000	5.329282e-003
2.951255558890093e-003	-1.507144e+000	5.567378e-003
2.956277880318664e-003	-1.356207e+000	5.833547e-003
2.961300201747235e-003	-1.203996e+000	6.127788e-003
2.966322523175807e-003	-1.050511e+000	6.450101e-003
2.971344844604378e-003	-8.957532e-001	6.800486e-003
2.976367166032950e-003	-7.397220e-001	7.178944e-003
2.984179666032950e-003	-4.961924e-001	7.927141e-003
2.988085916032950e-003	-3.739425e-001	8.387422e-003
2.991992166032950e-003	-2.514674e-001	8.934343e-003
2.995898416032950e-003	-1.288408e-001	9.640654e-003
2.999804666032950e-003	-6.136596e-003	1.098948e-002
3.003710916032950e-003	1.165713e-001	1.649336e-002
3.007617166032950e-003	2.392090e-001	3.639252e-002
3.010921577659774e-003	3.428423e-001	7.662093e-002
3.014416560846756e-003	4.522905e-001	1.446399e-001
3.018322810846756e-003	5.743574e-001	2.379840e-001
3.022229060846756e-003	6.960782e-001	3.400770e-001
3.026135310846756e-003	8.173798e-001	4.468240e-001
3.037854060846756e-003	1.178040e+000	7.787464e-001
3.045108525132471e-003	1.399328e+000	9.888992e-001
3.052362989418185e-003	1.616606e+000	1.196233e+000
3.059617453703899e-003	1.829873e+000	1.400748e+000
3.066871917989614e-003	2.039130e+000	1.602444e+000
3.074126382275328e-003	2.244376e+000	1.801321e+000
3.081380846561042e-003	2.445612e+000	1.997379e+000
3.088635310846757e-003	2.642837e+000	2.190618e+000
3.102586203703899e-003	3.009948e+000	2.550526e+000
3.116537096561042e-003	3.348112e+000	2.882346e+000
3.130487989418185e-003	3.657330e+000	3.186081e+000
3.144438882275328e-003	3.937601e+000	3.461729e+000
3.158389775132471e-003	4.188926e+000	3.709290e+000
3.172340667989614e-003	4.411305e+000	3.928766e+000
3.186291560846757e-003	4.604736e+000	4.120154e+000
3.210287096561042e-003	4.842662e+000	4.355119e+000
3.234282632275328e-003	4.970815e+000	4.481704e+000
3.258278167989614e-003	4.989194e+000	4.499909e+000
3.282273703703900e-003	4.897800e+000	4.409733e+000
3.306269239418186e-003	4.696632e+000	4.211177e+000
3.330264775132471e-003	4.385690e+000	3.904241e+000
3.354260310846757e-003	3.964975e+000	3.488924e+000
3.365421025132471e-003	3.738517e+000	3.265400e+000
3.376581739418185e-003	3.496872e+000	3.027573e+000
3.387742453703900e-003	3.240041e+000	2.775444e+000
3.398903167989614e-003	2.968024e+000	2.509013e+000
3.410063882275328e-003	2.680821e+000	2.228280e+000
3.421224596561042e-003	2.378431e+000	1.933245e+000
3.432385310846757e-003	2.060855e+000	1.623907e+000
3.437407632275328e-003	1.915726e+000	1.482869e+000
3.442429953703900e-003	1.769060e+000	1.341255e+000
3.447452275132471e-003	1.620855e+000	1.199065e+000
3.452474596561042e-003	1.471113e+000	1.056300e+000
3.457496917989614e-003	1.319832e+000	9.129595e-001
3.462519239418185e-003	1.167014e+000	7.690434e-001
3.467541560846757e-003	1.012658e+000	6.245517e-001
3.475354060846757e-003	7.711842e-001	4.053550e-001
3.479260310846757e-003	6.497141e-001	2.996757e-001
3.483166560846757e-003	5.278527e-001	1.995713e-001
3.487072810846757e-003	4.056732e-001	1.103448e-001
3.490979060846757e-003	2.832494e-001	4.206456e-002
3.494885310846757e-003	1.606550e-001	3.730814e-003
3.498791560846757e-003	3.796387e-002	-9.525679e-003
3.501047161502863e-003	-3.289731e-002	-1.073263e-002
3.503213457298971e-003	-1.009469e-001	-1.048358e-002
3.511025957298971e-003	-3.461137e-001	-9.242838e-003
3.514932207298971e-003	-4.684212e-001	-8.737727e-003
3.522744707298971e-003	-7.121164e-001	-7.928276e-003
3.530557207298971e-003	-9.540959e-001	-7.297062e-003
3.542275957298971e-003	-1.312575e+000	-6.550914e-003
3.550646493013257e-003	-1.566040e+000	-6.134216e-003
3.559017028727543e-003	-1.813513e+000	-5.745499e-003
3.567387564441828e-003	-2.054993e+000	-5.384762e-003
3.575758100156114e-003	-2.290481e+000	-5.052005e-003
3.584128635870400e-003	-2.519976e+000	-4.747228e-003
3.592499171584686e-003	-2.743478e+000	-4.470432e-003
3.600869707298971e-003	-2.960987e+000	-4.221615e-003
3.617052743013257e-003	-3.362301e+000	-3.751987e-003
3.633235778727543e-003	-3.720926e+000	-3.294561e-003
3.649418814441828e-003	-4.036860e+000	-2.849337e-003
3.665601850156114e-003	-4.310104e+000	-2.416315e-003
3.681784885870400e-003	-4.540658e+000	-1.995495e-003
3.697967921584686e-003	-4.728522e+000	-1.586877e-003
3.714150957298971e-003	-4.873696e+000	-1.190460e-003
3.735914350156114e-003	-4.974438e+000	-6.568440e-004
3.757677743013257e-003	-4.986631e+000	-1.169813e-004
3.779441135870400e-003	-4.910273e+000	4.291280e-004
3.801204528727543e-003	-4.745364e+000	9.814838e-004
3.822967921584686e-003	-4.491905e+000	1.540086e-003
3.844731314441829e-003	-4.149896e+000	2.104935e-003
