time	V(n001)	V(n002)
0.000000000000000e+000	0.000000e+000	0.000000e+000
8.267584214477213e-008	1.298670e-004	1.044834e-004
1.653516842895443e-007	2.597338e-004	1.949874e-004
2.480275264343164e-007	3.896006e-004	2.715120e-004
3.307033685790885e-007	5.194672e-004	3.340571e-004
4.133792107238607e-007	6.493337e-004	3.826229e-004
4.960550528686328e-007	7.792001e-004	4.172093e-004
5.787308950134047e-007	9.090664e-004	4.378162e-004
7.927115407659031e-007	1.245183e-003	4.862295e-004
1.496426168808899e-006	2.350546e-003	5.424562e-004
7.046627899343121e-006	1.109130e-002	6.013964e-004
1.259682962987734e-005	1.979233e-002	6.739527e-004
1.814703136041157e-005	2.845363e-002	7.601250e-004
2.369723309094579e-005	3.707520e-002	8.599132e-004
2.924743482148001e-005	4.565704e-002	9.733175e-004
3.479763655201424e-005	5.419915e-002	1.100338e-003
4.034783828254845e-005	6.270154e-002	1.240974e-003
5.206658828254846e-005	8.033496e-002	1.635325e-003
5.987908828254847e-005	9.185452e-002	1.971969e-003
6.769158828254848e-005	1.031528e-001	2.379050e-003
7.550408828254848e-005	1.142026e-001	2.866559e-003
8.331658828254849e-005	1.249772e-001	3.444048e-003
9.112908828254850e-005	1.354508e-001	4.119932e-003
9.894158828254850e-005	1.455980e-001	4.900707e-003
1.067540882825485e-004	1.553945e-001	5.790136e-003
1.145665882825485e-004	1.648167e-001	6.788502e-003
1.262853382825485e-004	1.781986e-001	8.480830e-003
1.380040882825485e-004	1.906148e-001	1.037730e-002
1.441424811396914e-004	1.967301e-001	1.146525e-002
1.502808739968343e-004	2.025326e-001	1.255558e-002
1.564192668539771e-004	2.080224e-001	1.364832e-002
1.625576597111200e-004	2.131993e-001	1.474345e-002
1.686960525682629e-004	2.180634e-001	1.584098e-002
1.748344454254057e-004	2.226147e-001	1.694090e-002
1.809728382825486e-004	2.268532e-001	1.804322e-002
1.887853382825486e-004	2.317557e-001	1.939283e-002
1.965978382825486e-004	2.360779e-001	2.059817e-002
2.044103382825486e-004	2.398200e-001	2.165925e-002
2.122228382825486e-004	2.429818e-001	2.257606e-002
2.200353382825486e-004	2.455634e-001	2.334861e-002
2.278478382825486e-004	2.475648e-001	2.397689e-002
2.356603382825486e-004	2.489860e-001	2.446090e-002
2.473790882825486e-004	2.499661e-001	2.476119e-002
2.590978382825486e-004	2.495916e-001	2.461560e-002
2.708165882825487e-004	2.478646e-001	2.402867e-002
2.825353382825487e-004	2.447944e-001	2.302319e-002
2.942540882825487e-004	2.403977e-001	2.163964e-002
3.009505168539772e-004	2.372801e-001	2.066164e-002
3.076469454254058e-004	2.337603e-001	1.962940e-002
3.143433739968344e-004	2.298381e-001	1.854292e-002
3.210398025682630e-004	2.255137e-001	1.740218e-002
3.277362311396916e-004	2.207869e-001	1.620720e-002
3.344326597111202e-004	2.156578e-001	1.495797e-002
3.411290882825487e-004	2.101264e-001	1.365449e-002
3.472674811396916e-004	2.047244e-001	1.247476e-002
3.534058739968344e-004	1.990404e-001	1.133568e-002
3.595442668539773e-004	1.930742e-001	1.023725e-002
3.656826597111202e-004	1.868259e-001	9.179472e-003
3.718210525682631e-004	1.802955e-001	8.162342e-003
3.779594454254059e-004	1.734830e-001	7.185863e-003
3.840978382825488e-004	1.663883e-001	6.250033e-003
3.919103382825488e-004	1.570325e-001	5.181081e-003
3.997228382825488e-004	1.472983e-001	4.223185e-003
4.075353382825488e-004	1.372093e-001	3.377544e-003
4.153478382825488e-004	1.267897e-001	2.641628e-003
4.231603382825488e-004	1.160648e-001	2.009868e-003
4.309728382825488e-004	1.050601e-001	1.474453e-003
4.387853382825488e-004	9.380244e-002	1.026130e-003
4.465978382825488e-004	8.231875e-002	6.549435e-004
4.544103382825488e-004	7.063676e-002	3.508548e-004
4.622228382825488e-004	5.878459e-002	1.042104e-004
4.700353382825488e-004	4.679080e-002	-9.393071e-005
4.817540882825488e-004	2.859787e-002	-3.175080e-004
4.934728382825489e-004	1.024997e-002	-4.727434e-004
4.979371239968346e-004	3.226496e-003	-5.162625e-004
5.024014097111203e-004	-3.785748e-003	-5.549794e-004
5.068656954254060e-004	-1.078676e-002	-5.888940e-004
5.113299811396918e-004	-1.777655e-002	-6.180065e-004
5.157942668539775e-004	-2.475511e-002	-6.423167e-004
5.202585525682632e-004	-3.172245e-002	-6.618247e-004
5.247228382825489e-004	-3.867855e-002	-6.765305e-004
5.342094454254060e-004	-5.344779e-002	-6.969128e-004
5.436960525682632e-004	-6.790215e-002	-7.112522e-004
5.531826597111203e-004	-8.204163e-002	-7.195485e-004
5.626692668539775e-004	-9.586624e-002	-7.218019e-004
5.721558739968346e-004	-1.093760e-001	-7.180123e-004
5.816424811396918e-004	-1.225708e-001	-7.081797e-004
5.911290882825489e-004	-1.354508e-001	-6.923040e-004
6.067540882825490e-004	-1.557720e-001	-6.641544e-004
6.223790882825490e-004	-1.742031e-001	-6.332080e-004
6.380040882825490e-004	-1.907442e-001	-5.994651e-004
6.536290882825490e-004	-2.053952e-001	-5.629254e-004
6.692540882825490e-004	-2.181561e-001	-5.235891e-004
6.848790882825490e-004	-2.290269e-001	-4.814562e-004
7.005040882825490e-004	-2.380076e-001	-4.365265e-004
7.239415882825491e-004	-2.463871e-001	-3.675971e-004
7.473790882825491e-004	-2.495911e-001	-2.994796e-004
7.708165882825491e-004	-2.476195e-001	-2.321739e-004
7.942540882825491e-004	-2.404723e-001	-1.656801e-004
8.176915882825491e-004	-2.281495e-001	-9.999829e-005
8.411290882825492e-004	-2.106512e-001	-3.512832e-005
8.645665882825492e-004	-1.879773e-001	2.892975e-005
8.762853382825492e-004	-1.751421e-001	5.783101e-005
8.880040882825492e-004	-1.615539e-001	8.747003e-005
8.997228382825492e-004	-1.472128e-001	1.178468e-004
9.114415882825492e-004	-1.321187e-001	1.489614e-004
9.231603382825492e-004	-1.162717e-001	1.808138e-004
9.348790882825492e-004	-9.967169e-002	2.134039e-004
9.465978382825493e-004	-8.231875e-002	2.467318e-004
9.532942668539779e-004	-7.227120e-002	2.667975e-004
9.599906954254064e-004	-6.214099e-002	2.913110e-004
9.666871239968350e-004	-5.192811e-002	3.202722e-004
9.733835525682636e-004	-4.163257e-002	3.536810e-004
9.800799811396921e-004	-3.125436e-002	3.915376e-004
9.867764097111207e-004	-2.079350e-002	4.338419e-004
9.934728382825493e-004	-1.024997e-002	4.805939e-004
9.979371239968351e-004	-3.226496e-003	5.166079e-004
1.002401409711121e-003	3.785748e-003	5.593875e-004
1.006865695425407e-003	1.078676e-002	6.089326e-004
1.011329981139692e-003	1.777655e-002	6.652433e-004
1.015794266853978e-003	2.475511e-002	7.283194e-004
1.020258552568264e-003	3.172245e-002	7.981611e-004
1.024722838282549e-003	3.867855e-002	8.747684e-004
1.036441588282549e-003	5.674345e-002	1.134399e-003
1.048160338282549e-003	7.450085e-002	1.490316e-003
1.055972838282549e-003	8.612068e-002	1.795468e-003
1.063785338282549e-003	9.753303e-002	2.166077e-003
1.071597838282549e-003	1.087104e-001	2.612136e-003
1.079410338282549e-003	1.196259e-001	3.143495e-003
1.087222838282549e-003	1.302532e-001	3.769230e-003
1.095035338282549e-003	1.405668e-001	4.496900e-003
1.102847838282549e-003	1.505416e-001	5.331733e-003
1.110660338282549e-003	1.601539e-001	6.275838e-003
1.122379088282549e-003	1.738418e-001	7.892022e-003
1.134097838282549e-003	1.865876e-001	9.725325e-003
1.140236231139692e-003	1.928852e-001	1.078664e-002
1.146374623996835e-003	1.988749e-001	1.185800e-002
1.152513016853978e-003	2.045569e-001	1.293943e-002
1.158651409711121e-003	2.099310e-001	1.403091e-002
1.164789802568264e-003	2.149973e-001	1.513245e-002
1.170928195425407e-003	2.197558e-001	1.624404e-002
1.177066588282550e-003	2.242066e-001	1.736569e-002
1.184879088282550e-003	2.293856e-001	1.875570e-002
1.192691588282550e-003	2.339884e-001	2.001086e-002
1.200504088282550e-003	2.380149e-001	2.113114e-002
1.208316588282550e-003	2.414653e-001	2.211656e-002
1.216129088282550e-003	2.443394e-001	2.296711e-002
1.223941588282550e-003	2.466373e-001	2.368279e-002
1.231754088282550e-003	2.483589e-001	2.426361e-002
1.243472838282550e-003	2.497898e-001	2.471032e-002
1.255191588282550e-003	2.498670e-001	2.471377e-002
1.266910338282550e-003	2.485902e-001	2.427232e-002
1.278629088282550e-003	2.459662e-001	2.340271e-002
1.290347838282550e-003	2.420093e-001	2.213963e-002
1.302066588282550e-003	2.367410e-001	2.053468e-002
1.308763016853978e-003	2.331319e-001	1.944843e-002
1.315459445425407e-003	2.291300e-001	1.832672e-002
1.322155873996835e-003	2.247352e-001	1.716954e-002
1.328852302568264e-003	2.199474e-001	1.597690e-002
1.335548731139692e-003	2.147668e-001	1.474880e-002
1.342245159711121e-003	2.091934e-001	1.348525e-002
1.348941588282550e-003	2.032270e-001	1.218623e-002
1.355638016853978e-003	1.968912e-001	1.092573e-002
1.362334445425407e-003	1.902381e-001	9.728352e-003
1.369030873996835e-003	1.832675e-001	8.594079e-003
1.375727302568264e-003	1.759795e-001	7.522915e-003
1.382423731139692e-003	1.683742e-001	6.514861e-003
1.389120159711121e-003	1.604514e-001	5.569917e-003
1.395816588282550e-003	1.522112e-001	4.688081e-003
1.403629088282550e-003	1.422967e-001	3.786410e-003
1.411441588282550e-003	1.320393e-001	2.996156e-003
1.419254088282550e-003	1.214638e-001	2.313174e-003
1.427066588282550e-003	1.105958e-001	1.730671e-003
1.434879088282550e-003	9.946125e-002	1.240018e-003
1.442691588282550e-003	8.808713e-002	8.315261e-004
1.450504088282550e-003	7.650080e-002	4.951289e-004
1.458316588282550e-003	6.473017e-002	2.209305e-004
1.466129088282550e-003	5.280360e-002	-3.981098e-007
1.477847838282550e-003	3.468429e-002	-2.516049e-004
1.489566588282550e-003	1.637703e-002	-4.273813e-004
1.494030873996836e-003	9.360300e-003	-4.770336e-004
1.498495159711121e-003	2.349982e-003	-5.213368e-004
1.502959445425407e-003	-4.653927e-003	-5.602909e-004
1.507423731139693e-003	-1.165143e-002	-5.938959e-004
1.511888016853978e-003	-1.864252e-002	-6.221518e-004
1.516352302568264e-003	-2.562720e-002	-6.450585e-004
1.520816588282550e-003	-3.260547e-002	-6.626162e-004
1.530303195425407e-003	-4.743864e-002	-6.877494e-004
1.539789802568264e-003	-6.197732e-002	-7.061826e-004
1.549276409711121e-003	-7.622149e-002	-7.179158e-004
1.558763016853978e-003	-9.017118e-002	-7.229490e-004
1.568249623996836e-003	-1.038264e-001	-7.212821e-004
1.577736231139693e-003	-1.171870e-001	-7.129153e-004
1.587222838282550e-003	-1.302532e-001	-6.978484e-004
1.602289802568264e-003	-1.501935e-001	-6.721984e-004
1.617356766853979e-003	-1.684258e-001	-6.436945e-004
1.632423731139693e-003	-1.849501e-001	-6.123369e-004
1.647490695425407e-003	-1.997664e-001	-5.781255e-004
1.662557659711121e-003	-2.128746e-001	-5.410603e-004
1.677624623996836e-003	-2.242749e-001	-5.011413e-004
1.692691588282550e-003	-2.339672e-001	-4.583685e-004
1.716687123996836e-003	-2.443349e-001	-3.882722e-004
1.740682659711121e-003	-2.492466e-001	-3.188234e-004
1.764678195425407e-003	-2.487023e-001	-2.500224e-004
1.788673731139693e-003	-2.427021e-001	-1.818690e-004
1.812669266853979e-003	-2.312459e-001	-1.143632e-004
1.836664802568265e-003	-2.143337e-001	-4.750505e-005
1.860660338282550e-003	-1.919655e-001	1.870544e-005
1.872937123996836e-003	-1.788241e-001	4.912627e-005
1.885213909711122e-003	-1.648420e-001	8.026523e-005
1.897490695425407e-003	-1.500190e-001	1.121223e-004
1.909767481139693e-003	-1.343552e-001	1.446975e-004
1.922044266853979e-003	-1.178505e-001	1.779908e-004
1.934321052568265e-003	-1.005051e-001	2.120022e-004
1.946597838282550e-003	-8.231875e-002	2.467318e-004
1.953294266853979e-003	-7.227120e-002	2.667975e-004
1.959990695425407e-003	-6.214099e-002	2.913110e-004
1.966687123996836e-003	-5.192811e-002	3.202722e-004
1.973383552568265e-003	-4.163257e-002	3.536810e-004
1.980079981139693e-003	-3.125436e-002	3.915376e-004
1.986776409711122e-003	-2.079350e-002	4.338419e-004
1.993472838282550e-003	-1.024997e-002	4.805939e-004
1.997937123996836e-003	-3.226496e-003	5.166079e-004
2.002401409711122e-003	3.785748e-003	5.593875e-004
2.006865695425407e-003	1.078676e-002	6.089326e-004
2.011329981139693e-003	1.777655e-002	6.652433e-004
2.015794266853979e-003	2.475511e-002	7.283194e-004
2.020258552568265e-003	3.172245e-002	7.981611e-004
2.024722838282550e-003	3.867855e-002	8.747684e-004
2.036441588282550e-003	5.674345e-002	1.134399e-003
2.048160338282550e-003	7.450085e-002	1.490316e-003
2.055972838282550e-003	8.612068e-002	1.795468e-003
2.063785338282550e-003	9.753303e-002	2.166077e-003
2.071597838282550e-003	1.087104e-001	2.612136e-003
2.079410338282550e-003	1.196259e-001	3.143495e-003
2.087222838282550e-003	1.302532e-001	3.769230e-003
2.095035338282550e-003	1.405668e-001	4.496900e-003
2.102847838282550e-003	1.505416e-001	5.331733e-003
2.110660338282550e-003	1.601539e-001	6.275838e-003
2.122379088282550e-003	1.738418e-001	7.892022e-003
2.134097838282550e-003	1.865876e-001	9.725325e-003
2.140236231139693e-003	1.928852e-001	1.078664e-002
2.146374623996836e-003	1.988749e-001	1.185800e-002
2.152513016853979e-003	2.045569e-001	1.293943e-002
2.158651409711122e-003	2.099310e-001	1.403091e-002
2.164789802568265e-003	2.149973e-001	1.513245e-002
2.170928195425408e-003	2.197558e-001	1.624404e-002
2.177066588282550e-003	2.242066e-001	1.736569e-002
2.184879088282550e-003	2.293856e-001	1.875570e-002
2.192691588282550e-003	2.339884e-001	2.001086e-002
2.200504088282550e-003	2.380149e-001	2.113114e-002
2.208316588282550e-003	2.414653e-001	2.211656e-002
2.216129088282550e-003	2.443394e-001	2.296711e-002
2.223941588282550e-003	2.466373e-001	2.368279e-002
2.231754088282550e-003	2.483589e-001	2.426361e-002
2.243472838282550e-003	2.497898e-001	2.471032e-002
2.255191588282550e-003	2.498670e-001	2.471377e-002
2.266910338282550e-003	2.485902e-001	2.427232e-002
2.278629088282550e-003	2.459662e-001	2.340271e-002
2.290347838282550e-003	2.420093e-001	2.213963e-002
2.302066588282551e-003	2.367410e-001	2.053468e-002
2.308763016853979e-003	2.331319e-001	1.944843e-002
2.315459445425408e-003	2.291300e-001	1.832672e-002
2.322155873996836e-003	2.247352e-001	1.716954e-002
2.328852302568265e-003	2.199474e-001	1.597690e-002
2.335548731139693e-003	2.147668e-001	1.474880e-002
2.342245159711122e-003	2.091934e-001	1.348525e-002
2.348941588282551e-003	2.032270e-001	1.218623e-002
2.355638016853979e-003	1.968912e-001	1.092573e-002
2.362334445425408e-003	1.902381e-001	9.728352e-003
2.369030873996836e-003	1.832675e-001	8.594079e-003
2.375727302568265e-003	1.759795e-001	7.522915e-003
2.382423731139693e-003	1.683742e-001	6.514861e-003
2.389120159711122e-003	1.604514e-001	5.569917e-003
2.395816588282551e-003	1.522112e-001	4.688081e-003
2.403629088282551e-003	1.422967e-001	3.786410e-003
2.411441588282551e-003	1.320393e-001	2.996156e-003
2.419254088282551e-003	1.214638e-001	2.313174e-003
2.427066588282551e-003	1.105958e-001	1.730671e-003
2.434879088282551e-003	9.946125e-002	1.240018e-003
2.442691588282551e-003	8.808713e-002	8.315261e-004
2.450504088282551e-003	7.650080e-002	4.951289e-004
2.458316588282551e-003	6.473017e-002	2.209305e-004
2.466129088282551e-003	5.280360e-002	-3.981098e-007
2.477847838282551e-003	3.468429e-002	-2.516049e-004
2.489566588282551e-003	1.637703e-002	-4.273813e-004
2.494030873996836e-003	9.360300e-003	-4.770336e-004
2.498495159711122e-003	2.349982e-003	-5.213368e-004
2.502959445425408e-003	-4.653927e-003	-5.602909e-004
2.507423731139693e-003	-1.165143e-002	-5.938959e-004
2.511888016853979e-003	-1.864252e-002	-6.221518e-004
2.516352302568265e-003	-2.562720e-002	-6.450585e-004
2.520816588282551e-003	-3.260547e-002	-6.626162e-004
2.530303195425408e-003	-4.743864e-002	-6.877494e-004
2.539789802568265e-003	-6.197732e-002	-7.061826e-004
2.549276409711122e-003	-7.622149e-002	-7.179158e-004
2.558763016853979e-003	-9.017118e-002	-7.229490e-004
2.568249623996836e-003	-1.038264e-001	-7.212821e-004
2.577736231139694e-003	-1.171870e-001	-7.129153e-004
2.587222838282551e-003	-1.302532e-001	-6.978484e-004
2.602289802568265e-003	-1.501935e-001	-6.721984e-004
2.617356766853979e-003	-1.684258e-001	-6.436945e-004
2.632423731139694e-003	-1.849501e-001	-6.123369e-004
2.647490695425408e-003	-1.997664e-001	-5.781255e-004
2.662557659711122e-003	-2.128746e-001	-5.410603e-004
2.677624623996836e-003	-2.242749e-001	-5.011413e-004
2.692691588282551e-003	-2.339672e-001	-4.583685e-004
2.716687123996836e-003	-2.443349e-001	-3.882722e-004
2.740682659711123e-003	-2.492466e-001	-3.188234e-004
2.764678195425408e-003	-2.487023e-001	-2.500224e-004
2.788673731139694e-003	-2.427021e-001	-1.818690e-004
2.812669266853980e-003	-2.312459e-001	-1.143632e-004
2.836664802568265e-003	-2.143337e-001	-4.750505e-005
2.860660338282551e-003	-1.919655e-001	1.870544e-005
2.872937123996837e-003	-1.788241e-001	4.912627e-005
2.885213909711123e-003	-1.648420e-001	8.026523e-005
2.897490695425408e-003	-1.500190e-001	1.121223e-004
2.909767481139694e-003	-1.343552e-001	1.446975e-004
2.922044266853979e-003	-1.178505e-001	1.779908e-004
2.934321052568265e-003	-1.005051e-001	2.120022e-004
2.946597838282551e-003	-8.231875e-002	2.467318e-004
2.953294266853979e-003	-7.227120e-002	2.667975e-004
2.959990695425408e-003	-6.214099e-002	2.913110e-004
2.966687123996837e-003	-5.192811e-002	3.202722e-004
2.973383552568266e-003	-4.163257e-002	3.536810e-004
2.980079981139694e-003	-3.125436e-002	3.915376e-004
2.986776409711123e-003	-2.079350e-002	4.338419e-004
2.993472838282551e-003	-1.024997e-002	4.805939e-004
2.997937123996837e-003	-3.226496e-003	5.166079e-004
3.002401409711123e-003	3.785748e-003	5.593875e-004
3.006865695425408e-003	1.078676e-002	6.089326e-004
3.011329981139694e-003	1.777655e-002	6.652433e-004
3.015794266853980e-003	2.475511e-002	7.283194e-004
3.020258552568266e-003	3.172245e-002	7.981611e-004
3.024722838282551e-003	3.867855e-002	8.747684e-004
3.036441588282551e-003	5.674345e-002	1.134399e-003
3.048160338282551e-003	7.450085e-002	1.490316e-003
3.055972838282551e-003	8.612068e-002	1.795468e-003
3.063785338282551e-003	9.753303e-002	2.166077e-003
3.071597838282551e-003	1.087104e-001	2.612136e-003
3.079410338282551e-003	1.196259e-001	3.143495e-003
3.087222838282551e-003	1.302532e-001	3.769230e-003
3.095035338282551e-003	1.405668e-001	4.496900e-003
3.102847838282551e-003	1.505416e-001	5.331733e-003
3.110660338282551e-003	1.601539e-001	6.275838e-003
3.122379088282551e-003	1.738418e-001	7.892022e-003
3.134097838282551e-003	1.865876e-001	9.725325e-003
3.140236231139694e-003	1.928852e-001	1.078664e-002
3.146374623996837e-003	1.988749e-001	1.185800e-002
3.152513016853980e-003	2.045569e-001	1.293943e-002
3.158651409711123e-003	2.099310e-001	1.403091e-002
3.164789802568266e-003	2.149973e-001	1.513245e-002
3.170928195425408e-003	2.197558e-001	1.624404e-002
3.177066588282551e-003	2.242066e-001	1.736569e-002
3.184879088282551e-003	2.293856e-001	1.875570e-002
3.192691588282551e-003	2.339884e-001	2.001086e-002
3.200504088282551e-003	2.380149e-001	2.113114e-002
3.208316588282551e-003	2.414653e-001	2.211656e-002
3.216129088282551e-003	2.443394e-001	2.296711e-002
3.223941588282551e-003	2.466373e-001	2.368279e-002
3.231754088282551e-003	2.483589e-001	2.426361e-002
3.243472838282551e-003	2.497898e-001	2.471032e-002
3.255191588282551e-003	2.498670e-001	2.471377e-002
3.266910338282551e-003	2.485902e-001	2.427232e-002
3.278629088282551e-003	2.459662e-001	2.340271e-002
3.290347838282551e-003	2.420093e-001	2.213963e-002
3.302066588282551e-003	2.367410e-001	2.053468e-002
3.308763016853980e-003	2.331319e-001	1.944843e-002
3.315459445425409e-003	2.291300e-001	1.832672e-002
3.322155873996837e-003	2.247352e-001	1.716954e-002
3.328852302568266e-003	2.199474e-001	1.597690e-002
3.335548731139694e-003	2.147668e-001	1.474880e-002
3.342245159711123e-003	2.091934e-001	1.348525e-002
3.348941588282551e-003	2.032270e-001	1.218623e-002
3.355638016853980e-003	1.968912e-001	1.092573e-002
3.362334445425409e-003	1.902381e-001	9.728352e-003
3.369030873996837e-003	1.832675e-001	8.594079e-003
3.375727302568266e-003	1.759795e-001	7.522915e-003
3.382423731139694e-003	1.683742e-001	6.514861e-003
3.389120159711123e-003	1.604514e-001	5.569917e-003
3.395816588282551e-003	1.522112e-001	4.688081e-003
3.403629088282551e-003	1.422967e-001	3.786410e-003
3.411441588282551e-003	1.320393e-001	2.996156e-003
3.419254088282552e-003	1.214638e-001	2.313174e-003
3.427066588282552e-003	1.105958e-001	1.730671e-003
3.434879088282552e-003	9.946125e-002	1.240018e-003
3.442691588282552e-003	8.808713e-002	8.315261e-004
