time	V(n001)	V(n002)
0.000000000000000e+000	0.000000e+000	0.000000e+000
1.780810611442861e-008	5.594582e-004	5.358266e-004
3.561621222885722e-008	1.118916e-003	1.046761e-003
5.342431834328583e-008	1.678375e-003	1.532805e-003
7.123242445771444e-008	2.237833e-003	1.993956e-003
8.904053057214304e-008	2.797291e-003	2.430216e-003
1.068486366865717e-007	3.356749e-003	2.841584e-003
1.246567428010002e-007	3.916207e-003	3.228060e-003
1.949947866245690e-007	6.125940e-003	4.584114e-003
2.793885984932599e-007	8.777247e-003	5.884429e-003
4.015355816167537e-007	1.261460e-002	7.283867e-003
5.522315984893586e-007	1.734883e-002	8.467400e-003
7.641257550324227e-007	2.400563e-002	9.491625e-003
1.039681307268585e-006	3.266232e-002	1.023132e-002
1.442955198591416e-006	4.533115e-002	1.079383e-002
2.031059609468794e-006	6.380589e-002	1.132003e-002
3.035380889379786e-006	9.535352e-002	1.241424e-002
4.951646819209318e-006	1.555355e-001	1.736751e-002
7.943278059471027e-006	2.494418e-001	3.723126e-002
1.125973656821151e-005	3.534400e-001	8.111158e-002
1.457180981132865e-005	4.571476e-001	1.468053e-001
1.847805981132865e-005	5.792021e-001	2.408034e-001
2.238430981132865e-005	7.009077e-001	3.431110e-001
2.629055981132865e-005	8.221911e-001	4.499537e-001
3.800930981132865e-005	1.182779e+000	7.819582e-001
4.526377409704294e-005	1.404010e+000	9.920914e-001
5.251823838275723e-005	1.621220e+000	1.199391e+000
5.977270266847153e-005	1.834411e+000	1.403856e+000
6.702716695418582e-005	2.043582e+000	1.605487e+000
7.428163123990013e-005	2.248733e+000	1.804285e+000
8.153609552561441e-005	2.449865e+000	2.000248e+000
8.879055981132869e-005	2.646976e+000	2.193377e+000
1.027414526684716e-004	3.013839e+000	2.553049e+000
1.166923455256144e-004	3.351732e+000	2.884609e+000
1.306432383827573e-004	3.660654e+000	3.188057e+000
1.445941312399002e-004	3.940605e+000	3.463393e+000
1.585450240970431e-004	4.191585e+000	3.710617e+000
1.724959169541859e-004	4.413595e+000	3.929729e+000
1.864468098113288e-004	4.606635e+000	4.120730e+000
2.104423455256145e-004	4.843824e+000	4.354965e+000
2.344378812399003e-004	4.971253e+000	4.480834e+000
2.584334169541860e-004	4.988922e+000	4.498338e+000
2.824289526684718e-004	4.896832e+000	4.407477e+000
3.064244883827575e-004	4.694981e+000	4.208249e+000
3.304200240970433e-004	4.383372e+000	3.900656e+000
3.544155598113289e-004	3.962002e+000	3.484698e+000
3.655762740970432e-004	3.735277e+000	3.260913e+000
3.767369883827576e-004	3.493385e+000	3.022848e+000
3.878977026684718e-004	3.236325e+000	2.770503e+000
3.990584169541861e-004	2.964098e+000	2.503878e+000
4.102191312399004e-004	2.676703e+000	2.222973e+000
4.213798455256147e-004	2.374140e+000	1.927788e+000
4.325405598113290e-004	2.056410e+000	1.618323e+000
4.375628812399005e-004	1.911220e+000	1.477234e+000
4.425852026684719e-004	1.764497e+000	1.335584e+000
4.476075240970433e-004	1.616240e+000	1.193374e+000
4.526298455256147e-004	1.466450e+000	1.050603e+000
4.576521669541862e-004	1.315127e+000	9.072714e-001
4.626744883827576e-004	1.162271e+000	7.633796e-001
4.676968098113290e-004	1.007881e+000	6.189273e-001
4.755093098113290e-004	7.663649e-001	3.999260e-001
4.794155598113290e-004	6.448779e-001	2.944592e-001
4.833218098113290e-004	5.230023e-001	1.947554e-001
4.872280598113290e-004	4.008118e-001	1.063402e-001
4.911343098113290e-004	2.783799e-001	3.949261e-002
4.950405598113290e-004	1.557802e-001	2.160680e-003
4.984555778470524e-004	4.851869e-002	-9.260845e-003
5.006494384658278e-004	-2.040266e-002	-1.046040e-002
5.027342832406481e-004	-8.589581e-002	-1.028916e-002
5.105467832406481e-004	-3.310945e-001	-9.070935e-003
5.144530332406481e-004	-4.534316e-001	-8.568351e-003
5.222655332406481e-004	-6.972129e-001	-7.766565e-003
5.300780332406481e-004	-9.393145e-001	-7.143449e-003
5.417967832406481e-004	-1.298043e+000	-6.409094e-003
5.501673189549338e-004	-1.551738e+000	-6.000115e-003
5.585378546692195e-004	-1.799477e+000	-5.618831e-003
5.669083903835053e-004	-2.041261e+000	-5.265241e-003
5.752789260977910e-004	-2.277089e+000	-4.939346e-003
5.836494618120768e-004	-2.506963e+000	-4.641146e-003
5.920199975263625e-004	-2.730881e+000	-4.370641e-003
6.003905332406482e-004	-2.948843e+000	-4.127831e-003
6.165735689549339e-004	-3.351155e+000	-3.669439e-003
6.327566046692196e-004	-3.710862e+000	-3.223070e-003
6.489396403835054e-004	-4.027963e+000	-2.788724e-003
6.651226760977911e-004	-4.302458e+000	-2.366402e-003
6.813057118120768e-004	-4.534348e+000	-1.956103e-003
6.974887475263626e-004	-4.723632e+000	-1.557827e-003
7.136717832406483e-004	-4.870311e+000	-1.171574e-003
7.354351760977912e-004	-4.973178e+000	-6.515061e-004
7.571985689549340e-004	-4.987426e+000	-1.254401e-004
7.789619618120769e-004	-4.913055e+000	4.066236e-004
8.007253546692197e-004	-4.750065e+000	9.446848e-004
8.224887475263627e-004	-4.498456e+000	1.488744e-003
8.442521403835056e-004	-4.158228e+000	2.038800e-003
8.660155332406484e-004	-3.729381e+000	2.594854e-003
8.766182118120770e-004	-3.496448e+000	2.869041e-003
8.872208903835056e-004	-3.250892e+000	3.163875e-003
8.978235689549341e-004	-2.992714e+000	3.479358e-003
9.084262475263627e-004	-2.721914e+000	3.815488e-003
9.190289260977914e-004	-2.438491e+000	4.172266e-003
9.296316046692199e-004	-2.142445e+000	4.549692e-003
9.402342832406485e-004	-1.833777e+000	4.947765e-003
9.452566046692199e-004	-1.685725e+000	5.150438e-003
9.502789260977914e-004	-1.536370e+000	5.379318e-003
9.553012475263628e-004	-1.385712e+000	5.634405e-003
9.603235689549342e-004	-1.233752e+000	5.915699e-003
9.653458903835057e-004	-1.080488e+000	6.223200e-003
9.703682118120771e-004	-9.259214e-001	6.556908e-003
9.753905332406485e-004	-7.700521e-001	6.916824e-003
9.832030332406485e-004	-5.267132e-001	7.623501e-003
9.871092832406485e-004	-4.045312e-001	8.055457e-003
9.910155332406485e-004	-2.821054e-001	8.564354e-003
9.949217832406485e-004	-1.595098e-001	9.200046e-003
9.988280332406485e-004	-3.681809e-002	1.024521e-002
1.002734283240649e-003	8.589581e-002	1.390856e-002
1.006640533240649e-003	2.085580e-001	2.844455e-002
1.010029245642651e-003	3.148696e-001	6.282268e-002
1.013622162316943e-003	4.274305e-001	1.268857e-001
1.017528412316943e-003	5.495588e-001	2.170472e-001
1.021434662316943e-003	6.713560e-001	3.176772e-001
1.025340912316943e-003	7.927487e-001	4.236415e-001
1.033153412316943e-003	1.034029e+000	6.432422e-001
1.039291805174086e-003	1.222566e+000	8.204150e-001
1.045430198031229e-003	1.408604e+000	9.962920e-001
1.051568590888372e-003	1.592143e+000	1.170873e+000
1.057706983745515e-003	1.773183e+000	1.344159e+000
1.063845376602658e-003	1.951723e+000	1.516148e+000
1.069983769459801e-003	2.127765e+000	1.686842e+000
1.076122162316943e-003	2.301307e+000	1.856240e+000
1.088398948031229e-003	2.640847e+000	2.187996e+000
1.100675733745515e-003	2.960286e+000	2.500516e+000
1.112952519459801e-003	3.259623e+000	2.793798e+000
1.125229305174086e-003	3.538859e+000	3.067843e+000
1.137506090888372e-003	3.797993e+000	3.322652e+000
1.149782876602658e-003	4.037025e+000	3.558223e+000
1.162059662316944e-003	4.255957e+000	3.774557e+000
1.189961448031229e-003	4.649642e+000	4.163253e+000
1.217863233745515e-003	4.895371e+000	4.405890e+000
1.245765019459801e-003	4.993143e+000	4.502468e+000
1.273666805174086e-003	4.942958e+000	4.452988e+000
1.301568590888372e-003	4.744816e+000	4.257449e+000
1.329470376602658e-003	4.398717e+000	3.915852e+000
1.357372162316944e-003	3.904662e+000	3.428196e+000
1.368532876602658e-003	3.672907e+000	3.199472e+000
1.379693590888372e-003	3.426344e+000	2.956884e+000
1.390854305174087e-003	3.164972e+000	2.700431e+000
1.402015019459801e-003	2.888791e+000	2.430114e+000
1.413175733745515e-003	2.597801e+000	2.145932e+000
1.424336448031230e-003	2.292003e+000	1.847886e+000
1.435497162316944e-003	1.971395e+000	1.535975e+000
1.440519483745515e-003	1.825065e+000	1.393895e+000
1.445541805174087e-003	1.677289e+000	1.251521e+000
1.450564126602658e-003	1.528069e+000	1.108854e+000
1.455586448031230e-003	1.377403e+000	9.658927e-001
1.460608769459801e-003	1.225292e+000	8.226377e-001
1.465631090888372e-003	1.071736e+000	6.790890e-001
1.470653412316944e-003	9.167348e-001	5.352464e-001
1.474559662316944e-003	7.958326e-001	4.261095e-001
1.478465912316944e-003	6.744511e-001	3.196661e-001
1.482372162316944e-003	5.526633e-001	2.181581e-001
1.486278412316944e-003	4.305426e-001	1.262636e-001
1.490184662316944e-003	3.081625e-001	5.314383e-002
1.494090912316944e-003	1.855968e-001	8.943746e-003
1.497997162316944e-003	6.291934e-002	-8.410779e-003
1.500223225604804e-003	-7.012837e-003	-1.044077e-002
1.502395508770244e-003	-7.525428e-002	-1.032691e-002
1.509012203673122e-003	-2.829754e-001	-9.291880e-003
1.512918453673122e-003	-4.053997e-001	-8.756451e-003
1.516824703673122e-003	-5.275797e-001	-8.299741e-003
1.524637203673122e-003	-7.709131e-001	-7.562091e-003
1.532449703673122e-003	-1.012389e+000	-6.978650e-003
1.544168453673122e-003	-1.369850e+000	-6.280763e-003
1.553097025101693e-003	-1.639304e+000	-5.863351e-003
1.562025596530264e-003	-1.901603e+000	-5.473658e-003
1.570954167958836e-003	-2.156748e+000	-5.111684e-003
1.579882739387407e-003	-2.404739e+000	-4.777428e-003
1.588811310815979e-003	-2.645575e+000	-4.470892e-003
1.597739882244550e-003	-2.879256e+000	-4.192073e-003
1.606668453673122e-003	-3.105783e+000	-3.940974e-003
1.623409525101693e-003	-3.507925e+000	-3.477934e-003
1.640150596530264e-003	-3.863016e+000	-3.025571e-003
1.656891667958836e-003	-4.171054e+000	-2.583885e-003
1.673632739387407e-003	-4.432041e+000	-2.152876e-003
1.690373810815979e-003	-4.645976e+000	-1.732544e-003
1.707114882244550e-003	-4.812860e+000	-1.322889e-003
1.723855953673122e-003	-4.932692e+000	-9.239111e-004
1.744503275101693e-003	-4.990850e+000	-4.312710e-004
1.765150596530265e-003	-4.969940e+000	6.773703e-005
1.785797917958836e-003	-4.869959e+000	5.731128e-004
1.806445239387408e-003	-4.690909e+000	1.084856e-003
1.827092560815979e-003	-4.432789e+000	1.602968e-003
1.847739882244550e-003	-4.095599e+000	2.127447e-003
1.868387203673122e-003	-3.679340e+000	2.658294e-003
1.878989882244550e-003	-3.442811e+000	2.933395e-003
1.889592560815979e-003	-3.193930e+000	3.230574e-003
1.900195239387408e-003	-2.932699e+000	3.549829e-003
1.910797917958836e-003	-2.659116e+000	3.891161e-003
1.921400596530265e-003	-2.373182e+000	4.254571e-003
1.932003275101693e-003	-2.074897e+000	4.640057e-003
1.942605953673122e-003	-1.764260e+000	5.047621e-003
1.947628275101693e-003	-1.615395e+000	5.255226e-003
1.952650596530265e-003	-1.465299e+000	5.491998e-003
1.957672917958836e-003	-1.313972e+000	5.757937e-003
1.962695239387407e-003	-1.161413e+000	6.053044e-003
1.967717560815979e-003	-1.007623e+000	6.377318e-003
1.972739882244550e-003	-8.526023e-001	6.730759e-003
1.977762203673122e-003	-6.963500e-001	7.113367e-003
1.985574703673122e-003	-4.525638e-001	7.877957e-003
1.989480953673122e-003	-3.302251e-001	8.353346e-003
1.993387203673122e-003	-2.076873e-001	8.928289e-003
1.997293453673122e-003	-8.502457e-002	9.733859e-003
2.001199703673122e-003	3.768944e-002	1.177338e-002
2.005105953673122e-003	1.603808e-001	2.106620e-002
2.009012203673122e-003	2.829754e-001	5.163202e-002
2.012918453673122e-003	4.053997e-001	1.129310e-001
2.016519498189455e-003	5.180440e-001	1.921717e-001
2.020425748189455e-003	6.399337e-001	2.909859e-001
2.024331998189455e-003	7.614380e-001	3.958525e-001
2.032144498189456e-003	1.002998e+000	6.145567e-001
2.038282891046598e-003	1.191808e+000	7.915879e-001
2.044421283903741e-003	1.378164e+000	9.674305e-001
2.050559676760884e-003	1.562065e+000	1.142085e+000
2.056698069618027e-003	1.743512e+000	1.315550e+000
2.062836462475170e-003	1.922503e+000	1.487827e+000
2.068974855332313e-003	2.099040e+000	1.658916e+000
2.075113248189456e-003	2.273122e+000	1.828815e+000
2.087390033903741e-003	2.613887e+000	2.161674e+000
2.099666819618027e-003	2.934688e+000	2.475449e+000
2.111943605332313e-003	3.235525e+000	2.770139e+000
2.124220391046598e-003	3.516398e+000	3.045746e+000
2.136497176760884e-003	3.777308e+000	3.302268e+000
2.148773962475170e-003	4.018254e+000	3.539707e+000
2.161050748189456e-003	4.239235e+000	3.758061e+000
2.188952533903741e-003	4.638290e+000	4.152058e+000
2.216854319618027e-003	4.889333e+000	4.399939e+000
2.244756105332313e-003	4.992365e+000	4.501706e+000
2.272657891046599e-003	4.947386e+000	4.457358e+000
2.300559676760884e-003	4.754396e+000	4.266895e+000
2.328461462475170e-003	4.413394e+000	3.930318e+000
2.356363248189456e-003	3.924381e+000	3.447625e+000
2.367523962475170e-003	3.694334e+000	3.220578e+000
2.378684676760884e-003	3.449355e+000	2.979523e+000
2.389845391046599e-003	3.189445e+000	2.724461e+000
2.401006105332313e-003	2.914602e+000	2.455391e+000
2.412166819618027e-003	2.624828e+000	2.172313e+000
2.423327533903741e-003	2.320122e+000	1.875228e+000
2.434488248189456e-003	2.000484e+000	1.564136e+000
2.439510569618027e-003	1.854537e+000	1.422390e+000
2.444532891046599e-003	1.707115e+000	1.280254e+000
2.449555212475170e-003	1.558217e+000	1.137728e+000
2.454577533903741e-003	1.407845e+000	9.948111e-001
2.459599855332313e-003	1.255997e+000	8.515044e-001
2.464622176760884e-003	1.102673e+000	7.078075e-001
2.469644498189456e-003	9.478748e-001	5.637203e-001
2.473550748189456e-003	8.271083e-001	4.540966e-001
2.477456998189456e-003	7.058436e-001	3.468083e-001
2.481363248189456e-003	5.841537e-001	2.437350e-001
2.485269498189456e-003	4.621119e-001	1.486914e-001
2.489175748189456e-003	3.397918e-001	6.958033e-002
2.493081998189456e-003	2.172670e-001	1.735333e-002
2.496988248189456e-003	9.461132e-002	-6.495089e-003
2.499291208595697e-003	2.226727e-002	-1.021709e-002
2.501527550384617e-003	-4.798868e-002	-1.041708e-002
2.503690603810842e-003	-1.159334e-001	-1.016187e-002
2.507596853810842e-003	-2.385716e-001	-9.507723e-003
2.511503103810842e-003	-3.610661e-001	-8.940890e-003
2.515409353810842e-003	-4.833432e-001	-8.456590e-003
2.523221853810842e-003	-7.269503e-001	-7.682108e-003
2.531034353810842e-003	-9.688061e-001	-7.075727e-003
2.542753103810842e-003	-1.327033e+000	-6.356723e-003
2.551123639525128e-003	-1.580269e+000	-5.953706e-003
2.559494175239414e-003	-1.827474e+000	-5.577517e-003
2.567864710953700e-003	-2.068649e+000	-5.228156e-003
2.576235246667985e-003	-2.303795e+000	-4.905624e-003
2.584605782382271e-003	-2.532911e+000	-4.609920e-003
2.592976318096557e-003	-2.755996e+000	-4.341044e-003
2.601346853810842e-003	-2.973052e+000	-4.098997e-003
2.617529889525128e-003	-3.373370e+000	-3.642218e-003
2.633712925239414e-003	-3.730914e+000	-3.197189e-003
2.649895960953700e-003	-4.045683e+000	-2.763909e-003
2.666078996667985e-003	-4.317679e+000	-2.342378e-003
2.682262032382271e-003	-4.546901e+000	-1.932597e-003
2.698445068096557e-003	-4.733348e+000	-1.534565e-003
2.714628103810843e-003	-4.877022e+000	-1.148283e-003
2.736391496667985e-003	-4.975648e+000	-6.284470e-004
2.758154889525128e-003	-4.985794e+000	-1.024291e-004
2.779918282382271e-003	-4.907458e+000	4.297707e-004
2.801681675239414e-003	-4.740641e+000	9.681526e-004
2.823445068096557e-003	-4.485342e+000	1.512716e-003
2.845208460953700e-003	-4.141563e+000	2.063462e-003
2.866971853810843e-003	-3.709302e+000	2.620390e-003
2.877574532382271e-003	-3.474913e+000	2.894943e-003
2.888177210953700e-003	-3.228010e+000	3.190707e-003
2.898779889525128e-003	-2.968594e+000	3.507682e-003
2.909382568096557e-003	-2.696664e+000	3.845866e-003
2.919985246667986e-003	-2.412221e+000	4.205260e-003
2.930587925239414e-003	-2.115264e+000	4.585865e-003
2.941190603810843e-003	-1.805794e+000	4.987680e-003
2.946212925239414e-003	-1.657410e+000	5.192311e-003
2.951235246667986e-003	-1.507753e+000	5.424292e-003
2.956257568096557e-003	-1.356821e+000	5.683623e-003
2.961279889525128e-003	-1.204615e+000	5.970302e-003
2.966302210953700e-003	-1.051135e+000	6.284332e-003
2.971324532382271e-003	-8.963810e-001	6.625711e-003
2.976346853810843e-003	-7.403531e-001	6.994439e-003
2.984159353810843e-003	-4.968274e-001	7.723410e-003
2.988065603810843e-003	-3.745788e-001	8.171870e-003
2.991971853810843e-003	-2.521047e-001	8.704743e-003
2.995878103810843e-003	-1.294787e-001	9.392780e-003
2.999784353810843e-003	-6.774723e-003	1.070598e-002
3.003690603810843e-003	1.159334e-001	1.608490e-002
3.007596853810843e-003	2.385716e-001	3.568570e-002
3.010905999049143e-003	3.423540e-001	7.563094e-002
3.014406015986078e-003	4.519606e-001	1.434639e-001
3.018312265986078e-003	5.740283e-001	2.366416e-001
3.022218515986078e-003	6.957502e-001	3.386513e-001
3.026124765986078e-003	8.170530e-001	4.453501e-001
3.037843515986078e-003	1.177718e+000	7.772097e-001
3.045097980271792e-003	1.399010e+000	9.873496e-001
3.052352444557506e-003	1.616292e+000	1.194674e+000
3.059606908843221e-003	1.829565e+000	1.399182e+000
3.066861373128935e-003	2.038827e+000	1.600875e+000
3.074115837414649e-003	2.244080e+000	1.799752e+000
3.081370301700363e-003	2.445323e+000	1.995813e+000
3.088624765986078e-003	2.642556e+000	2.189058e+000
3.102575658843221e-003	3.009684e+000	2.548978e+000
3.116526551700364e-003	3.347866e+000	2.880813e+000
3.130477444557506e-003	3.657104e+000	3.184564e+000
3.144428337414650e-003	3.937397e+000	3.460231e+000
3.158379230271792e-003	4.188746e+000	3.707814e+000
3.172330123128935e-003	4.411149e+000	3.927313e+000
3.186281015986078e-003	4.604607e+000	4.118727e+000
3.210276551700364e-003	4.842583e+000	4.353741e+000
3.234272087414650e-003	4.970785e+000	4.480374e+000
3.258267623128935e-003	4.989212e+000	4.498626e+000
3.282263158843221e-003	4.897865e+000	4.408498e+000
3.306258694557507e-003	4.696744e+000	4.209988e+000
3.330254230271793e-003	4.385847e+000	3.903098e+000
3.354249765986078e-003	3.965177e+000	3.487827e+000
3.365410480271793e-003	3.738737e+000	3.264321e+000
3.376571194557507e-003	3.497109e+000	3.026512e+000
3.387731908843221e-003	3.240294e+000	2.774400e+000
3.398892623128935e-003	2.968291e+000	2.507986e+000
3.410053337414650e-003	2.681100e+000	2.227269e+000
3.421214051700364e-003	2.378722e+000	1.932248e+000
3.432374765986078e-003	2.061157e+000	1.622925e+000
3.437397087414650e-003	1.916032e+000	1.481892e+000
3.442419408843221e-003	1.769369e+000	1.340285e+000
3.447441730271793e-003	1.621168e+000	1.198104e+000
3.452464051700364e-003	1.471429e+000	1.055349e+000
3.457486373128935e-003	1.320152e+000	9.120200e-001
3.462508694557507e-003	1.167336e+000	7.681166e-001
3.467531015986078e-003	1.012982e+000	6.236392e-001
3.475343515986078e-003	7.715115e-001	4.044851e-001
3.479249765986078e-003	6.500426e-001	2.988461e-001
3.483156015986078e-003	5.281821e-001	1.988152e-001
3.487062265986078e-003	4.060034e-001	1.097402e-001
3.490968515986078e-003	2.835802e-001	4.174472e-002
3.494874765986078e-003	1.609861e-001	3.753984e-003
3.498781015986078e-003	3.829514e-002	-9.281694e-003
3.501035052228923e-003	-3.251690e-002	-1.045711e-002
3.503200915985857e-003	-1.005530e-001	-1.021532e-002
3.511013415985857e-003	-3.457206e-001	-9.005958e-003
3.514919665985857e-003	-4.680289e-001	-8.513851e-003
3.522732165985857e-003	-7.117264e-001	-7.725313e-003
3.530544665985857e-003	-9.537091e-001	-7.110345e-003
3.542263415985857e-003	-1.312195e+000	-6.383362e-003
3.550633951700142e-003	-1.565666e+000	-5.977347e-003
3.559004487414428e-003	-1.813146e+000	-5.598593e-003
3.567375023128714e-003	-2.054634e+000	-5.247101e-003
3.575745558843000e-003	-2.290131e+000	-4.922870e-003
3.584116094557285e-003	-2.519635e+000	-4.625901e-003
3.592486630271571e-003	-2.743148e+000	-4.356193e-003
3.600857165985857e-003	-2.960669e+000	-4.113747e-003
3.617040201700143e-003	-3.362010e+000	-3.656145e-003
3.633223237414429e-003	-3.720663e+000	-3.210433e-003
3.649406273128714e-003	-4.036627e+000	-2.776610e-003
3.665589308843000e-003	-4.309904e+000	-2.354676e-003
3.681772344557285e-003	-4.540493e+000	-1.944631e-003
3.697955380271571e-003	-4.728394e+000	-1.546475e-003
3.714138415985857e-003	-4.873608e+000	-1.160208e-003
3.735901808843000e-003	-4.974406e+000	-6.402539e-004
3.757665201700143e-003	-4.986652e+000	-1.142120e-004
3.779428594557285e-003	-4.910346e+000	4.179172e-004
3.801191987414429e-003	-4.745488e+000	9.561337e-004
3.822955380271572e-003	-4.492077e+000	1.500437e-003
