time	V(n001)	V(n002)
0.000000000000000e+000	0.000000e+000	0.000000e+000
1.019162519570928e-008	1.280718e-003	1.251689e-003
2.038325039141857e-008	2.561435e-003	2.467148e-003
3.057487558712785e-008	3.842152e-003	3.646377e-003
4.076650078283713e-008	5.122870e-003	4.789375e-003
5.095812597854642e-008	6.403587e-003	5.896143e-003
6.114975117425569e-008	7.684304e-003	6.966681e-003
7.134137636996495e-008	8.965021e-003	8.000989e-003
1.169991736062966e-007	1.470255e-002	1.230450e-002
1.800551250964525e-007	2.262639e-002	1.739234e-002
2.654081074719229e-007	3.335215e-002	2.298584e-002
3.786099560885644e-007	4.757749e-002	2.864848e-002
5.287203940148546e-007	6.644084e-002	3.399196e-002
7.285075774017311e-007	9.154664e-002	3.872797e-002
1.000222911829656e-006	1.256909e-001	4.296488e-002
1.380881411003426e-006	1.735245e-001	4.783963e-002
1.932555527908258e-006	2.428461e-001	5.839449e-002
2.677037269858852e-006	3.363906e-001	8.641827e-002
3.431639661639170e-006	4.311991e-001	1.358375e-001
4.379915321922016e-006	5.503269e-001	2.209022e-001
5.330862566923072e-006	6.697707e-001	3.187252e-001
6.466503918413157e-006	8.123813e-001	4.437254e-001
8.270426749178113e-006	1.038825e+000	6.508935e-001
1.141368068459927e-005	1.433056e+000	1.021567e+000
2.221208365203187e-005	2.782200e+000	2.327271e+000
3.002458365203188e-005	3.756318e+000	3.285904e+000
3.783708365203189e-005	4.715713e+000	4.231706e+000
4.564958365203189e-005	5.660385e+000	5.164679e+000
5.346208365203190e-005	6.590335e+000	6.084822e+000
6.127458365203191e-005	7.505562e+000	6.992135e+000
6.908708365203191e-005	8.406067e+000	7.886618e+000
7.689958365203191e-005	9.291849e+000	8.768271e+000
9.085047650917478e-005	1.083109e+001	1.029973e+001
1.048013693663177e-004	1.226215e+001	1.172390e+001
1.187522622234605e-004	1.358503e+001	1.304078e+001
1.327031550806034e-004	1.479973e+001	1.425039e+001
1.466540479377463e-004	1.590624e+001	1.535271e+001
1.606049407948892e-004	1.690457e+001	1.634775e+001
1.745558336520320e-004	1.779472e+001	1.723551e+001
2.007835122234606e-004	1.904517e+001	1.848215e+001
2.270111907948892e-004	1.977226e+001	1.920706e+001
2.532388693663178e-004	1.997600e+001	1.941023e+001
2.794665479377464e-004	1.965639e+001	1.909167e+001
3.056942265091750e-004	1.881342e+001	1.825138e+001
3.319219050806036e-004	1.744711e+001	1.688936e+001
3.581495836520321e-004	1.555744e+001	1.500561e+001
3.698683336520321e-004	1.457508e+001	1.402633e+001
3.815870836520322e-004	1.352893e+001	1.298420e+001
3.933058336520322e-004	1.241899e+001	1.187922e+001
4.050245836520322e-004	1.124526e+001	1.071138e+001
4.167433336520322e-004	1.000775e+001	9.480697e+000
4.284620836520323e-004	8.706448e+000	8.187157e+000
4.401808336520322e-004	7.341358e+000	6.830765e+000
4.463192265091751e-004	6.615779e+000	6.109381e+000
4.524576193663179e-004	5.883116e+000	5.382985e+000
4.585960122234608e-004	5.143368e+000	4.651579e+000
4.647344050806037e-004	4.396536e+000	3.915161e+000
4.708727979377465e-004	3.642619e+000	3.173733e+000
4.770111907948894e-004	2.881618e+000	2.427293e+000
4.831495836520322e-004	2.113532e+000	1.675842e+000
4.870558336520322e-004	1.624819e+000	1.204709e+000
4.909620836520322e-004	1.135128e+000	7.428651e-001
4.948683336520322e-004	6.447525e-001	3.016733e-001
4.967748976798761e-004	4.052506e-001	1.124448e-001
4.981985411837265e-004	2.263732e-001	1.181857e-002
4.995571488777508e-004	5.565024e-002	-3.620982e-002
5.004206127880236e-004	-5.285570e-002	-4.360669e-002
5.010423212979453e-004	-1.309810e-001	-4.221385e-002
5.016501061634082e-004	-2.073547e-001	-4.032708e-002
5.028656758943339e-004	-3.600920e-001	-3.712636e-002
5.052968153561854e-004	-6.654946e-001	-3.249523e-002
5.085089221761783e-004	-1.068753e+000	-2.841201e-002
5.124151721761783e-004	-1.558555e+000	-2.508648e-002
5.163214221761783e-004	-2.047417e+000	-2.272178e-002
5.202276721761783e-004	-2.535047e+000	-2.093727e-002
5.241339221761783e-004	-3.021149e+000	-1.951701e-002
5.280401721761783e-004	-3.505431e+000	-1.834696e-002
5.319464221761783e-004	-3.987602e+000	-1.735498e-002
5.397589221761783e-004	-4.944449e+000	-1.574131e-002
5.475714221761783e-004	-5.889384e+000	-1.445692e-002
5.592901721761783e-004	-7.279482e+000	-1.291155e-002
5.710089221761783e-004	-8.630133e+000	-1.165290e-002
5.799374936047497e-004	-9.635370e+000	-1.084988e-002
5.888660650333212e-004	-1.060303e+001	-1.008936e-002
5.977946364618927e-004	-1.153311e+001	-9.371339e-003
6.067232078904641e-004	-1.242561e+001	-8.695818e-003
6.156517793190356e-004	-1.328054e+001	-8.062798e-003
6.245803507476070e-004	-1.409788e+001	-7.472278e-003
6.335089221761784e-004	-1.487765e+001	-6.924259e-003
6.485758864618927e-004	-1.609256e+001	-6.014981e-003
6.636428507476070e-004	-1.714414e+001	-5.121968e-003
6.787098150333213e-004	-1.803239e+001	-4.245218e-003
6.937767793190356e-004	-1.875731e+001	-3.384732e-003
7.088437436047498e-004	-1.931889e+001	-2.540510e-003
7.239107078904643e-004	-1.971714e+001	-1.712553e-003
7.389776721761785e-004	-1.995206e+001	-9.008585e-004
7.540446364618928e-004	-1.998438e+001	-8.706802e-005
7.691116007476071e-004	-1.984538e+001	7.355529e-004
7.841785650333214e-004	-1.953506e+001	1.567004e-003
7.992455293190357e-004	-1.905343e+001	2.407286e-003
8.143124936047499e-004	-1.840047e+001	3.256398e-003
8.293794578904644e-004	-1.757620e+001	4.114341e-003
8.444464221761786e-004	-1.658061e+001	4.981115e-003
8.544910650333215e-004	-1.583335e+001	5.563562e-003
8.645357078904643e-004	-1.503167e+001	6.178827e-003
8.745803507476072e-004	-1.417556e+001	6.826911e-003
8.846249936047500e-004	-1.326503e+001	7.507814e-003
8.946696364618929e-004	-1.230008e+001	8.221534e-003
9.047142793190358e-004	-1.128070e+001	8.968073e-003
9.147589221761786e-004	-1.020689e+001	9.747430e-003
9.203392793190357e-004	-9.595732e+000	1.020253e-002
9.259196364618929e-004	-8.974720e+000	1.070896e-002
9.314999936047500e-004	-8.343857e+000	1.126674e-002
9.370803507476073e-004	-7.703142e+000	1.187586e-002
9.426607078904644e-004	-7.052576e+000	1.253632e-002
9.482410650333216e-004	-6.392159e+000	1.324812e-002
9.538214221761787e-004	-5.721891e+000	1.401126e-002
9.616339221761787e-004	-4.774665e+000	1.532009e-002
9.655401721761787e-004	-4.296595e+000	1.609179e-002
9.694464221761787e-004	-3.815936e+000	1.696986e-002
9.733526721761787e-004	-3.332979e+000	1.798637e-002
9.772589221761787e-004	-2.848014e+000	1.918854e-002
9.811651721761787e-004	-2.361334e+000	2.064940e-002
9.850714221761787e-004	-1.873231e+000	2.248950e-002
9.889776721761787e-004	-1.384000e+000	2.492654e-002
9.928839221761787e-004	-8.939348e-001	2.840959e-002
9.967901721761787e-004	-4.033315e-001	3.424786e-002
1.000696422176179e-003	8.751471e-002	5.243862e-002
1.002511780101268e-003	3.156265e-001	8.811258e-002
1.003439731878333e-003	4.322158e-001	1.407564e-001
1.004833343571910e-003	6.072825e-001	2.678042e-001
1.005816186921643e-003	7.307209e-001	3.712469e-001
1.006958974059622e-003	8.742118e-001	4.994143e-001
1.009244548335580e-003	1.161051e+000	7.646461e-001
1.012315125605384e-003	1.546021e+000	1.128826e+000
1.016745521142565e-003	2.101487e+000	1.666838e+000
1.021175916679746e-003	2.654260e+000	2.204356e+000
1.025606312216927e-003	3.204341e+000	2.741379e+000
1.030036707754109e-003	3.751730e+000	3.277908e+000
1.034467103291290e-003	4.296425e+000	3.813942e+000
1.038897498828471e-003	4.838428e+000	4.349481e+000
1.043327894365652e-003	5.377738e+000	4.884525e+000
1.053930572937081e-003	6.661258e+000	6.157176e+000
1.064533251508510e-003	7.902027e+000	7.388283e+000
1.075135930079938e-003	9.100043e+000	8.577848e+000
1.085738608651367e-003	1.025531e+001	9.725869e+000
1.096341287222795e-003	1.136782e+001	1.083235e+001
1.106943965794224e-003	1.243758e+001	1.189728e+001
1.117546644365653e-003	1.346459e+001	1.292067e+001
1.135403787222795e-003	1.506863e+001	1.451896e+001
1.153260930079938e-003	1.644816e+001	1.589363e+001
1.171118072937081e-003	1.760318e+001	1.704466e+001
1.188975215794224e-003	1.853368e+001	1.797206e+001
1.206832358651367e-003	1.923966e+001	1.867583e+001
1.224689501508510e-003	1.972112e+001	1.915597e+001
1.242546644365653e-003	1.997807e+001	1.941248e+001
1.261519858651367e-003	1.992157e+001	1.935588e+001
1.280493072937081e-003	1.960447e+001	1.903962e+001
1.299466287222795e-003	1.902679e+001	1.846373e+001
1.318439501508510e-003	1.818852e+001	1.762819e+001
1.337412715794224e-003	1.708966e+001	1.653301e+001
1.356385930079939e-003	1.573022e+001	1.517818e+001
1.375359144365653e-003	1.411019e+001	1.356371e+001
1.386519858651367e-003	1.306791e+001	1.252493e+001
1.397680572937081e-003	1.197555e+001	1.143725e+001
1.408841287222796e-003	1.083310e+001	1.030067e+001
1.420002001508510e-003	9.640573e+000	9.115198e+000
1.431162715794224e-003	8.397962e+000	7.880824e+000
1.442323430079939e-003	7.105268e+000	6.597552e+000
1.453484144365653e-003	5.762491e+000	5.265382e+000
1.457948430079939e-003	5.222007e+000	4.729246e+000
1.462412715794224e-003	4.678490e+000	4.191764e+000
1.466877001508510e-003	4.131942e+000	3.652935e+000
1.471341287222796e-003	3.582361e+000	3.112760e+000
1.475805572937081e-003	3.029747e+000	2.571238e+000
1.480269858651367e-003	2.474102e+000	2.028370e+000
1.484734144365653e-003	1.915424e+000	1.484155e+000
1.488640394365653e-003	1.426278e+000	1.015744e+000
1.492546644365653e-003	9.362740e-001	5.630426e-001
1.496452894365653e-003	4.457055e-001	1.499773e-001
1.498192025448225e-003	2.271919e-001	1.517024e-002
1.499574065728886e-003	5.352442e-002	-3.625182e-002
1.500439920934620e-003	-5.528202e-002	-4.353288e-002
1.501088585740260e-003	-1.367947e-001	-4.207363e-002
1.501728224733045e-003	-2.171709e-001	-4.009432e-002
1.503007502718616e-003	-3.779114e-001	-3.680098e-002
1.505566058689757e-003	-6.993090e-001	-3.208438e-002
1.508815677722196e-003	-1.107244e+000	-2.809623e-002
1.512721927722196e-003	-1.596983e+000	-2.487215e-002
1.516628177722197e-003	-2.085759e+000	-2.256427e-002
1.520534427722197e-003	-2.573279e+000	-2.081453e-002
1.524440677722197e-003	-3.059249e+000	-1.941717e-002
1.528346927722197e-003	-3.543376e+000	-1.826335e-002
1.532253177722197e-003	-4.025369e+000	-1.728322e-002
1.540065677722197e-003	-4.981791e+000	-1.568563e-002
1.547878177722197e-003	-5.926212e+000	-1.441141e-002
1.559596927722197e-003	-7.315373e+000	-1.287556e-002
1.571315677722197e-003	-8.664891e+000	-1.162272e-002
1.580244249150768e-003	-9.669129e+000	-1.082239e-002
1.589172820579339e-003	-1.063569e+001	-1.006418e-002
1.598101392007911e-003	-1.156458e+001	-9.348093e-003
1.607029963436482e-003	-1.245579e+001	-8.674128e-003
1.615958534865054e-003	-1.330933e+001	-8.042285e-003
1.624887106293625e-003	-1.412520e+001	-7.452565e-003
1.633815677722197e-003	-1.490339e+001	-6.904966e-003
1.648882642007911e-003	-1.611540e+001	-5.996423e-003
1.663949606293625e-003	-1.716394e+001	-5.104019e-003
1.679016570579339e-003	-1.804902e+001	-4.227756e-003
1.694083534865054e-003	-1.877064e+001	-3.367632e-003
1.709150499150768e-003	-1.932879e+001	-2.523648e-003
1.724217463436482e-003	-1.972347e+001	-1.695804e-003
1.739284427722197e-003	-1.995469e+001	-8.841002e-004
1.754351392007911e-003	-1.998328e+001	-7.035855e-005
1.769418356293625e-003	-1.984065e+001	7.522955e-004
1.784485320579340e-003	-1.952678e+001	1.583862e-003
1.799552284865054e-003	-1.904169e+001	2.424341e-003
1.814619249150768e-003	-1.838536e+001	3.273732e-003
1.829686213436483e-003	-1.755781e+001	4.132036e-003
1.844753177722197e-003	-1.655902e+001	4.999252e-003
1.854797820579340e-003	-1.580978e+001	5.581978e-003
1.864842463436483e-003	-1.500622e+001	6.197788e-003
1.874887106293625e-003	-1.414835e+001	6.846682e-003
1.884931749150768e-003	-1.323616e+001	7.528659e-003
1.894976392007911e-003	-1.226966e+001	8.243721e-003
1.905021034865054e-003	-1.124885e+001	8.991867e-003
1.915065677722197e-003	-1.017372e+001	9.773097e-003
1.920646034865054e-003	-9.561893e+000	1.022930e-002
1.926226392007911e-003	-8.940254e+000	1.073747e-002
1.931806749150768e-003	-8.308808e+000	1.129762e-002
1.937387106293625e-003	-7.667554e+000	1.190973e-002
1.942967463436482e-003	-7.016492e+000	1.257381e-002
1.948547820579339e-003	-6.355622e+000	1.328987e-002
1.954128177722197e-003	-5.684944e+000	1.405789e-002
1.961940677722197e-003	-4.737223e+000	1.537741e-002
1.965846927722197e-003	-4.258939e+000	1.615655e-002
1.969753177722197e-003	-3.778089e+000	1.704418e-002
1.973659427722197e-003	-3.294964e+000	1.807331e-002
1.977565677722197e-003	-2.809853e+000	1.929271e-002
1.981471927722197e-003	-2.323051e+000	2.077814e-002
1.985378177722197e-003	-1.834849e+000	2.265543e-002
1.989284427722197e-003	-1.345541e+000	2.515373e-002
1.993190677722197e-003	-8.554236e-001	2.875208e-002
1.997096927722197e-003	-3.647906e-001	3.502525e-002
2.001003177722197e-003	1.260622e-001	5.590807e-002
2.002649864272174e-003	3.329764e-001	9.412841e-002
2.003579912779272e-003	4.498272e-001	1.510519e-001
2.004888274663231e-003	6.141821e-001	2.728532e-001
2.005755260328468e-003	7.230697e-001	3.644915e-001
2.006963135564992e-003	8.747343e-001	5.000209e-001
2.009378886038040e-003	1.177904e+000	7.803591e-001
2.012120761283329e-003	1.521668e+000	1.105573e+000
2.016027011283329e-003	2.011342e+000	1.579046e+000
2.019933261283329e-003	2.499073e+000	2.052550e+000
2.023839511283329e-003	2.984862e+000	2.526086e+000
2.027745761283329e-003	3.468709e+000	2.999653e+000
2.031652011283329e-003	3.950612e+000	3.473250e+000
2.035558261283329e-003	4.430574e+000	3.946880e+000
2.039464511283329e-003	4.908592e+000	4.420540e+000
2.049509154140472e-003	6.132981e+000	5.633593e+000
2.059553796997615e-003	7.321539e+000	6.812082e+000
2.069598439854757e-003	8.474267e+000	7.956005e+000
2.079643082711901e-003	9.591164e+000	9.065364e+000
2.089687725569043e-003	1.067223e+001	1.014016e+001
2.099732368426186e-003	1.171747e+001	1.118039e+001
2.109777011283329e-003	1.272688e+001	1.218605e+001
2.126518082711901e-003	1.430703e+001	1.376022e+001
2.143259154140472e-003	1.569685e+001	1.514489e+001
2.160000225569044e-003	1.689633e+001	1.634007e+001
2.176741296997615e-003	1.790547e+001	1.734575e+001
2.193482368426186e-003	1.872428e+001	1.816193e+001
2.210223439854758e-003	1.935275e+001	1.878862e+001
2.226964511283329e-003	1.979088e+001	1.922581e+001
2.247053796997615e-003	1.997298e+001	1.940718e+001
2.267143082711901e-003	1.985600e+001	1.929048e+001
2.287232368426186e-003	1.943996e+001	1.887572e+001
2.307321654140472e-003	1.872484e+001	1.816289e+001
2.327410939854758e-003	1.771065e+001	1.715200e+001
2.347500225569044e-003	1.639738e+001	1.584304e+001
2.367589511283329e-003	1.478505e+001	1.423601e+001
2.378750225569044e-003	1.379101e+001	1.324525e+001
2.389910939854758e-003	1.274285e+001	1.220135e+001
2.401071654140472e-003	1.164056e+001	1.110431e+001
2.412232368426187e-003	1.048416e+001	9.954132e+000
2.423393082711901e-003	9.273631e+000	8.750817e+000
2.434553796997615e-003	8.008981e+000	7.494362e+000
2.445714511283329e-003	6.690210e+000	6.184770e+000
2.451294868426187e-003	6.023289e+000	5.522052e+000
2.456875225569044e-003	5.351048e+000	4.856154e+000
2.462455582711901e-003	4.673489e+000	4.187078e+000
2.468035939854758e-003	3.990610e+000	3.514822e+000
2.473616296997615e-003	3.302413e+000	2.839387e+000
2.479196654140472e-003	2.608897e+000	2.160772e+000
2.484777011283329e-003	1.910062e+000	1.478979e+000
2.488683261283329e-003	1.420905e+000	1.010650e+000
2.492589511283329e-003	9.308930e-001	5.582979e-001
2.496495761283329e-003	4.403200e-001	1.463833e-001
2.498232863771809e-003	2.220603e-001	1.314627e-002
2.499618340692148e-003	4.796068e-002	-3.697437e-002
2.500459465917072e-003	-5.773811e-002	-4.355396e-002
2.501116936338188e-003	-1.403572e-001	-4.197967e-002
2.501767816774594e-003	-2.221458e-001	-3.997574e-002
2.503069577647407e-003	-3.857106e-001	-3.665935e-002
2.505673099393031e-003	-7.127517e-001	-3.192553e-002
2.508945276605819e-003	-1.123505e+000	-2.796681e-002
2.512851526605819e-003	-1.613216e+000	-2.478330e-002
2.516757776605819e-003	-2.101955e+000	-2.249875e-002
2.520664026605819e-003	-2.589429e+000	-2.076331e-002
2.524570276605819e-003	-3.075342e+000	-1.937544e-002
2.528476526605819e-003	-3.559403e+000	-1.822834e-002
2.532382776605819e-003	-4.041320e+000	-1.725314e-002
2.540195276605819e-003	-4.997562e+000	-1.566225e-002
2.548007776605819e-003	-5.941765e+000	-1.439228e-002
2.559726526605819e-003	-7.330528e+000	-1.286041e-002
2.571445276605819e-003	-8.679566e+000	-1.161001e-002
2.580373848034391e-003	-9.683382e+000	-1.081080e-002
2.589302419462962e-003	-1.064948e+001	-1.005356e-002
2.598230990891534e-003	-1.157786e+001	-9.338288e-003
2.607159562320105e-003	-1.246853e+001	-8.664975e-003
2.616088133748677e-003	-1.332148e+001	-8.033627e-003
2.625016705177248e-003	-1.413672e+001	-7.444242e-003
2.633945276605819e-003	-1.491424e+001	-6.896821e-003
2.649012240891534e-003	-1.612503e+001	-5.988587e-003
2.664079205177248e-003	-1.717229e+001	-5.096440e-003
2.679146169462962e-003	-1.805603e+001	-4.220380e-003
2.694213133748677e-003	-1.877625e+001	-3.360409e-003
2.709280098034391e-003	-1.933295e+001	-2.516525e-003
2.724347062320105e-003	-1.972612e+001	-1.688729e-003
2.739414026605820e-003	-1.995578e+001	-8.770204e-004
2.754480990891534e-003	-1.998280e+001	-6.329957e-005
2.769547955177248e-003	-1.983862e+001	7.593685e-004
2.784614919462962e-003	-1.952326e+001	1.590984e-003
2.799681883748677e-003	-1.903671e+001	2.431547e-003
2.814748848034391e-003	-1.837896e+001	3.281057e-003
2.829815812320105e-003	-1.755002e+001	4.139514e-003
2.844882776605820e-003	-1.654989e+001	5.006918e-003
2.854927419462962e-003	-1.579980e+001	5.589763e-003
2.864972062320105e-003	-1.499545e+001	6.205804e-003
2.875016705177248e-003	-1.413683e+001	6.855042e-003
2.885061348034391e-003	-1.322395e+001	7.537477e-003
2.895105990891534e-003	-1.225680e+001	8.253109e-003
2.905150633748677e-003	-1.123538e+001	9.001937e-003
2.915195276605820e-003	-1.015970e+001	9.783963e-003
2.920775633748677e-003	-9.547586e+000	1.024064e-002
2.926355990891534e-003	-8.925683e+000	1.074955e-002
2.931936348034391e-003	-8.293991e+000	1.131070e-002
2.937516705177248e-003	-7.652510e+000	1.192409e-002
2.943097062320105e-003	-7.001239e+000	1.258972e-002
2.948677419462962e-003	-6.340178e+000	1.330759e-002
2.954257776605820e-003	-5.669328e+000	1.407769e-002
2.962070276605820e-003	-4.721399e+000	1.540178e-002
2.965976526605820e-003	-4.243025e+000	1.618411e-002
2.969882776605820e-003	-3.762095e+000	1.707583e-002
2.973789026605820e-003	-3.278899e+000	1.811038e-002
2.977695276605820e-003	-2.793728e+000	1.933720e-002
2.981601526605820e-003	-2.306874e+000	2.083324e-002
2.985507776605820e-003	-1.818631e+000	2.272664e-002
2.989414026605820e-003	-1.329292e+000	2.525164e-002
2.993320276605820e-003	-8.391524e-001	2.890074e-002
2.997226526605820e-003	-3.485073e-001	3.540548e-002
3.001132776605820e-003	1.423477e-001	5.778442e-002
3.002719074414243e-003	3.416724e-001	9.758925e-002
3.003658164063287e-003	4.596580e-001	1.572689e-001
3.004937308994200e-003	6.203411e-001	2.778717e-001
3.005828011158316e-003	7.322058e-001	3.724826e-001
3.007046827105108e-003	8.852411e-001	5.095130e-001
3.009484458998691e-003	1.191147e+000	7.927477e-001
3.016108393607663e-003	2.020786e+000	1.585729e+000
3.022246786464806e-003	2.789316e+000	2.337064e+000
3.028385179321949e-003	3.550895e+000	3.083615e+000
3.034523572179092e-003	4.305525e+000	3.825382e+000
3.040661965036235e-003	5.053204e+000	4.562366e+000
3.046800357893378e-003	5.793933e+000	5.294566e+000
3.052938750750521e-003	6.527713e+000	6.021983e+000
3.059077143607663e-003	7.254542e+000	6.744616e+000
3.071353929321949e-003	8.687988e+000	8.168913e+000
3.083630715036235e-003	1.005075e+001	9.523536e+000
3.095907500750521e-003	1.134282e+001	1.080849e+001
3.108184286464806e-003	1.256420e+001	1.202376e+001
3.120461072179092e-003	1.371490e+001	1.316936e+001
3.132737857893378e-003	1.479491e+001	1.424528e+001
3.145014643607664e-003	1.580423e+001	1.525153e+001
3.175706607893378e-003	1.788534e+001	1.732609e+001
3.206398572179092e-003	1.925452e+001	1.869097e+001
3.237090536464806e-003	1.991179e+001	1.934618e+001
3.267782500750521e-003	1.985713e+001	1.929171e+001
3.298474465036235e-003	1.909054e+001	1.852756e+001
