time	V(n001)	V(n002)
0.000000000000000e+000	0.000000e+000	0.000000e+000
3.906249976259879e-011	1.227185e-006	2.698237e-011
7.812499952519758e-011	2.454369e-006	5.481010e-011
1.562499990503952e-010	4.908738e-006	1.113835e-010
3.658482120622825e-007	1.149354e-002	2.658266e-007
7.315401741255147e-007	2.298199e-002	5.402804e-007
1.097232136188747e-006	3.447024e-002	8.234729e-007
1.462924098251979e-006	4.595829e-002	1.115404e-006
1.828616060315211e-006	5.744616e-002	1.416074e-006
2.194308022378443e-006	6.893383e-002	1.725482e-006
2.559999984441674e-006	8.042131e-002	2.043630e-006
4.243307553024879e-006	1.332916e-001	3.737012e-006
5.796406754891566e-006	1.820592e-001	5.864194e-006
7.094329877294512e-006	2.228011e-001	8.594879e-006
8.213197431146736e-006	2.579107e-001	1.247044e-005
9.233739324158197e-006	2.899238e-001	1.846107e-005
1.020097731918788e-005	3.202538e-001	2.819190e-005
1.113637624735654e-005	3.495741e-001	4.470209e-005
1.212767251439486e-005	3.806335e-001	7.527690e-005
1.304216463815534e-005	4.092733e-001	1.250309e-004
1.397778448064213e-005	4.385608e-001	2.139346e-004
1.486785968206924e-005	4.664085e-001	3.610931e-004
1.577347067407088e-005	4.947274e-001	6.193944e-004
1.665692179321200e-005	5.223379e-001	1.052492e-003
1.755584782951180e-005	5.504155e-001	1.804845e-003
1.845016084552728e-005	5.783315e-001	3.075782e-003
1.936772578733825e-005	6.069544e-001	5.268753e-003
2.030564868661174e-005	6.361915e-001	8.991551e-003
2.129986171763698e-005	6.671592e-001	1.541263e-002
2.238380368639092e-005	7.008920e-001	2.647615e-002
2.367452362797346e-005	7.410173e-001	4.649574e-002
2.551184240346385e-005	7.980503e-001	8.592189e-002
2.765796593384500e-005	8.645338e-001	1.426639e-001
3.020121540522755e-005	9.431152e-001	2.174650e-001
3.305290205770297e-005	1.030939e+000	3.044035e-001
4.086540205770298e-005	1.269764e+000	5.435064e-001
4.979397348627442e-005	1.540931e+000	8.153932e-001
5.872254491484586e-005	1.805234e+000	1.080618e+000
6.765111634341730e-005	2.062674e+000	1.339179e+000
7.657968777198873e-005	2.313250e+000	1.591079e+000
8.550825920056017e-005	2.556963e+000	1.836316e+000
9.443683062913161e-005	2.793812e+000	2.074891e+000
1.033654020577030e-004	3.023798e+000	2.306803e+000
1.150841520577030e-004	3.311730e+000	2.597437e+000
1.268029020577031e-004	3.578442e+000	2.867525e+000
1.385216520577031e-004	3.823935e+000	3.117068e+000
1.502404020577031e-004	4.048208e+000	3.346064e+000
1.619591520577031e-004	4.251261e+000	3.554515e+000
1.736779020577031e-004	4.433094e+000	3.742419e+000
1.853966520577031e-004	4.593708e+000	3.909778e+000
1.915350449148460e-004	4.666622e+000	3.986646e+000
1.976734377719888e-004	4.732383e+000	4.056966e+000
2.038118306291317e-004	4.790989e+000	4.120737e+000
2.099502234862746e-004	4.842442e+000	4.177960e+000
2.160886163434174e-004	4.886740e+000	4.228635e+000
2.222270092005603e-004	4.923885e+000	4.272761e+000
2.283654020577031e-004	4.953876e+000	4.310339e+000
2.361779020577032e-004	4.981156e+000	4.349275e+000
2.400841520577032e-004	4.990299e+000	4.365090e+000
2.439904020577032e-004	4.996436e+000	4.378579e+000
2.478966520577031e-004	4.999563e+000	4.389839e+000
2.518029020577031e-004	4.999679e+000	4.398993e+000
2.557091520577031e-004	4.996783e+000	4.406179e+000
2.596154020577031e-004	4.990878e+000	4.411561e+000
2.635216520577032e-004	4.981966e+000	4.415317e+000
2.674279020577032e-004	4.970053e+000	4.417646e+000
2.713341520577032e-004	4.955146e+000	4.418758e+000
2.752404020577032e-004	4.937254e+000	4.418867e+000
2.791466520577032e-004	4.916389e+000	4.418180e+000
2.830529020577032e-004	4.892562e+000	4.416888e+000
2.869591520577032e-004	4.865788e+000	4.415158e+000
2.908654020577032e-004	4.836083e+000	4.413127e+000
2.947716520577032e-004	4.803465e+000	4.410900e+000
2.986779020577032e-004	4.767953e+000	4.408553e+000
3.025841520577032e-004	4.729570e+000	4.406137e+000
3.064904020577032e-004	4.688337e+000	4.403683e+000
3.103966520577032e-004	4.644281e+000	4.401211e+000
3.143029020577032e-004	4.597426e+000	4.398730e+000
3.182091520577032e-004	4.547803e+000	4.396246e+000
3.221154020577032e-004	4.495440e+000	4.393762e+000
3.260216520577032e-004	4.440370e+000	4.391278e+000
3.299279020577032e-004	4.382624e+000	4.388796e+000
3.338341520577032e-004	4.322239e+000	4.386314e+000
3.377404020577032e-004	4.259250e+000	4.383834e+000
3.466689734862747e-004	4.104249e+000	4.378171e+000
3.555975449148461e-004	3.937752e+000	4.372515e+000
3.645261163434175e-004	3.759758e+000	4.366865e+000
3.734546877719889e-004	3.570267e+000	4.361224e+000
3.823832592005604e-004	3.369279e+000	4.355589e+000
3.913118306291319e-004	3.156794e+000	4.349962e+000
4.002404020577033e-004	2.932813e+000	4.344342e+000
4.102850449148461e-004	2.668728e+000	4.338029e+000
4.203296877719890e-004	2.396815e+000	4.331724e+000
4.303743306291319e-004	2.117075e+000	4.325429e+000
4.404189734862748e-004	1.829507e+000	4.319143e+000
4.504636163434176e-004	1.534112e+000	4.312867e+000
4.605082592005605e-004	1.230889e+000	4.306599e+000
4.705529020577033e-004	9.198387e-001	4.300341e+000
4.744591520577033e-004	7.987662e-001	4.297909e+000
4.783654020577033e-004	6.773959e-001	4.295479e+000
4.822716520577033e-004	5.557278e-001	4.293051e+000
4.861779020577034e-004	4.337618e-001	4.290623e+000
4.900841520577034e-004	3.114979e-001	4.288197e+000
4.939904020577034e-004	1.889362e-001	4.285773e+000
4.978966520577034e-004	6.607670e-002	4.283350e+000
5.012448663434177e-004	-3.922441e-002	4.281274e+000
5.045930806291320e-004	-1.443920e-001	4.279199e+000
5.079412949148463e-004	-2.494260e-001	4.277126e+000
5.112895092005605e-004	-3.543265e-001	4.275053e+000
5.146377234862748e-004	-4.590935e-001	4.272981e+000
5.179859377719891e-004	-5.637269e-001	4.270910e+000
5.213341520577034e-004	-6.682268e-001	4.268841e+000
5.302627234862748e-004	-9.471123e-001	4.263326e+000
5.391912949148463e-004	-1.220912e+000	4.257819e+000
5.481198663434177e-004	-1.489625e+000	4.252319e+000
5.570484377719891e-004	-1.753251e+000	4.246826e+000
5.659770092005606e-004	-2.011792e+000	4.241341e+000
5.749055806291320e-004	-2.265246e+000	4.235862e+000
5.838341520577034e-004	-2.513613e+000	4.230391e+000
5.983430806291321e-004	-2.903176e+000	4.221515e+000
6.128520092005607e-004	-3.261937e+000	4.212659e+000
6.273609377719892e-004	-3.589896e+000	4.203821e+000
6.418698663434178e-004	-3.887052e+000	4.195001e+000
6.563787949148464e-004	-4.153406e+000	4.186201e+000
6.708877234862750e-004	-4.388958e+000	4.177419e+000
6.853966520577035e-004	-4.593708e+000	4.168656e+000
7.105082592005606e-004	-4.843261e+000	4.153534e+000
7.356198663434179e-004	-4.973209e+000	4.138467e+000
7.607314734862751e-004	-4.983552e+000	4.123455e+000
7.858430806291322e-004	-4.874290e+000	4.108498e+000
8.109546877719893e-004	-4.645423e+000	4.093596e+000
8.360662949148466e-004	-4.296950e+000	4.078750e+000
8.611779020577037e-004	-3.828873e+000	4.063959e+000
8.734546877719894e-004	-3.565106e+000	4.056747e+000
8.857314734862751e-004	-3.284600e+000	4.049548e+000
8.980082592005609e-004	-2.987358e+000	4.042362e+000
9.102850449148466e-004	-2.673378e+000	4.035189e+000
9.225618306291323e-004	-2.342661e+000	4.028029e+000
9.348386163434180e-004	-1.995206e+000	4.020882e+000
9.471154020577038e-004	-1.631013e+000	4.013748e+000
9.538118306291324e-004	-1.429851e+000	4.009862e+000
9.605082592005609e-004	-1.227064e+000	4.005980e+000
9.672046877719895e-004	-1.022652e+000	4.002101e+000
9.739011163434180e-004	-8.166144e-001	3.998227e+000
9.805975449148465e-004	-6.089520e-001	3.994356e+000
9.872939734862751e-004	-3.996647e-001	3.990489e+000
9.939904020577037e-004	-1.887522e-001	3.986625e+000
9.973386163434179e-004	-8.348965e-002	3.984695e+000
1.000686830629132e-003	2.169362e-002	3.982766e+000
1.004035044914847e-003	1.267976e-001	3.980838e+000
1.007383259200561e-003	2.318222e-001	3.978911e+000
1.010731473486275e-003	3.367675e-001	3.976984e+000
1.014079687771990e-003	4.416335e-001	3.975059e+000
1.017427902057704e-003	5.464202e-001	3.973134e+000
1.025798437771990e-003	8.086859e-001	3.968327e+000
1.034168973486275e-003	1.066962e+000	3.963526e+000
1.042539509200561e-003	1.321249e+000	3.958730e+000
1.050910044914847e-003	1.571547e+000	3.953941e+000
1.059280580629132e-003	1.817855e+000	3.949157e+000
1.067651116343418e-003	2.060174e+000	3.944379e+000
1.076021652057704e-003	2.298503e+000	3.939607e+000
1.083834152057704e-003	2.514808e+000	3.935158e+000
1.091646652057704e-003	2.723847e+000	3.930715e+000
1.099459152057704e-003	2.925620e+000	3.926276e+000
1.107271652057704e-003	3.120128e+000	3.921843e+000
1.115084152057704e-003	3.307370e+000	3.917415e+000
1.122896652057704e-003	3.487347e+000	3.912992e+000
1.130709152057704e-003	3.660058e+000	3.908574e+000
1.134615402057704e-003	3.742554e+000	3.906366e+000
1.138521652057704e-003	3.822796e+000	3.904160e+000
1.142427902057704e-003	3.900735e+000	3.901956e+000
1.146334152057704e-003	3.976325e+000	3.899753e+000
1.150240402057704e-003	4.049520e+000	3.897553e+000
1.154146652057704e-003	4.120275e+000	3.895359e+000
1.158052902057704e-003	4.188548e+000	3.893184e+000
1.161959152057704e-003	4.254298e+000	3.891079e+000
1.165865402057704e-003	4.317486e+000	3.889210e+000
1.169771652057704e-003	4.378073e+000	3.888094e+000
1.173677902057704e-003	4.436023e+000	3.889104e+000
1.177584152057704e-003	4.491300e+000	3.895053e+000
1.181490402057704e-003	4.543873e+000	3.909687e+000
1.185396652057704e-003	4.593708e+000	3.935267e+000
1.189302902057704e-003	4.640776e+000	3.970357e+000
1.193209152057704e-003	4.685049e+000	4.010786e+000
1.197115402057704e-003	4.726499e+000	4.052541e+000
1.201021652057704e-003	4.765103e+000	4.093266e+000
1.204927902057704e-003	4.800836e+000	4.131936e+000
1.208834152057704e-003	4.833716e+000	4.168168e+000
1.212740402057704e-003	4.863644e+000	4.201804e+000
1.216646652057704e-003	4.890620e+000	4.232845e+000
1.220552902057704e-003	4.914645e+000	4.261290e+000
1.224459152057704e-003	4.935719e+000	4.287139e+000
1.228365402057704e-003	4.953841e+000	4.310392e+000
1.232271652057704e-003	4.969012e+000	4.331049e+000
1.240084152057704e-003	4.990299e+000	4.365091e+000
1.243990402057704e-003	4.996436e+000	4.378580e+000
1.247896652057704e-003	4.999563e+000	4.389840e+000
1.251802902057704e-003	4.999679e+000	4.398993e+000
1.255709152057704e-003	4.996783e+000	4.406180e+000
1.259615402057704e-003	4.990878e+000	4.411561e+000
1.263521652057704e-003	4.981966e+000	4.415317e+000
1.267427902057704e-003	4.970053e+000	4.417646e+000
1.271334152057704e-003	4.955146e+000	4.418758e+000
1.275240402057704e-003	4.937254e+000	4.418868e+000
1.279146652057704e-003	4.916389e+000	4.418180e+000
1.283052902057704e-003	4.892562e+000	4.416888e+000
1.286959152057704e-003	4.865788e+000	4.415158e+000
1.290865402057704e-003	4.836083e+000	4.413127e+000
1.294771652057704e-003	4.803465e+000	4.410901e+000
1.298677902057704e-003	4.767953e+000	4.408554e+000
1.302584152057704e-003	4.729570e+000	4.406137e+000
1.306490402057704e-003	4.688337e+000	4.403684e+000
1.310396652057704e-003	4.644281e+000	4.401211e+000
1.314302902057704e-003	4.597426e+000	4.398731e+000
1.318209152057704e-003	4.547803e+000	4.396247e+000
1.322115402057704e-003	4.495440e+000	4.393763e+000
1.326021652057704e-003	4.440370e+000	4.391278e+000
1.329927902057704e-003	4.382624e+000	4.388796e+000
1.333834152057704e-003	4.322239e+000	4.386314e+000
1.337740402057704e-003	4.259250e+000	4.383834e+000
1.346668973486275e-003	4.104249e+000	4.378171e+000
1.355597544914847e-003	3.937752e+000	4.372514e+000
1.364526116343418e-003	3.759758e+000	4.366865e+000
1.373454687771990e-003	3.570267e+000	4.361224e+000
1.382383259200561e-003	3.369279e+000	4.355589e+000
1.391311830629133e-003	3.156794e+000	4.349962e+000
1.400240402057704e-003	2.932813e+000	4.344343e+000
1.410285044914847e-003	2.668728e+000	4.338029e+000
1.420329687771990e-003	2.396815e+000	4.331725e+000
1.430374330629133e-003	2.117075e+000	4.325430e+000
1.440418973486276e-003	1.829507e+000	4.319144e+000
1.450463616343419e-003	1.534112e+000	4.312867e+000
1.460508259200561e-003	1.230889e+000	4.306599e+000
1.470552902057704e-003	9.198387e-001	4.300341e+000
1.474459152057704e-003	7.987662e-001	4.297909e+000
1.478365402057704e-003	6.773959e-001	4.295479e+000
1.482271652057704e-003	5.557278e-001	4.293051e+000
1.486177902057704e-003	4.337618e-001	4.290623e+000
1.490084152057704e-003	3.114979e-001	4.288197e+000
1.493990402057704e-003	1.889362e-001	4.285773e+000
1.497896652057704e-003	6.607670e-002	4.283350e+000
1.501244866343418e-003	-3.922441e-002	4.281274e+000
1.504593080629133e-003	-1.443920e-001	4.279199e+000
1.507941294914847e-003	-2.494260e-001	4.277126e+000
1.511289509200561e-003	-3.543265e-001	4.275053e+000
1.514637723486276e-003	-4.590935e-001	4.272981e+000
1.517985937771990e-003	-5.637269e-001	4.270910e+000
1.521334152057704e-003	-6.682268e-001	4.268841e+000
1.530262723486276e-003	-9.471123e-001	4.263326e+000
1.539191294914847e-003	-1.220912e+000	4.257819e+000
1.548119866343418e-003	-1.489625e+000	4.252319e+000
1.557048437771990e-003	-1.753251e+000	4.246826e+000
1.565977009200561e-003	-2.011792e+000	4.241341e+000
1.574905580629133e-003	-2.265246e+000	4.235862e+000
1.583834152057704e-003	-2.513613e+000	4.230391e+000
1.598343080629133e-003	-2.903176e+000	4.221516e+000
1.612852009200561e-003	-3.261937e+000	4.212659e+000
1.627360937771990e-003	-3.589896e+000	4.203821e+000
1.641869866343419e-003	-3.887052e+000	4.195002e+000
1.656378794914847e-003	-4.153406e+000	4.186201e+000
1.670887723486276e-003	-4.388958e+000	4.177419e+000
1.685396652057704e-003	-4.593708e+000	4.168656e+000
1.710508259200562e-003	-4.843261e+000	4.153534e+000
1.735619866343419e-003	-4.973209e+000	4.138467e+000
1.760731473486276e-003	-4.983552e+000	4.123455e+000
1.785843080629133e-003	-4.874290e+000	4.108498e+000
1.810954687771990e-003	-4.645423e+000	4.093596e+000
1.836066294914847e-003	-4.296950e+000	4.078750e+000
1.861177902057705e-003	-3.828873e+000	4.063959e+000
1.873454687771990e-003	-3.565106e+000	4.056747e+000
1.885731473486276e-003	-3.284600e+000	4.049548e+000
1.898008259200562e-003	-2.987358e+000	4.042363e+000
1.910285044914847e-003	-2.673378e+000	4.035190e+000
1.922561830629133e-003	-2.342661e+000	4.028030e+000
1.934838616343419e-003	-1.995206e+000	4.020882e+000
1.947115402057705e-003	-1.631013e+000	4.013748e+000
1.953811830629133e-003	-1.429851e+000	4.009862e+000
1.960508259200562e-003	-1.227064e+000	4.005980e+000
1.967204687771990e-003	-1.022652e+000	4.002101e+000
1.973901116343419e-003	-8.166144e-001	3.998227e+000
1.980597544914847e-003	-6.089520e-001	3.994356e+000
1.987293973486276e-003	-3.996647e-001	3.990489e+000
1.993990402057705e-003	-1.887522e-001	3.986626e+000
1.997338616343419e-003	-8.348965e-002	3.984695e+000
2.000686830629133e-003	2.169362e-002	3.982766e+000
2.004035044914847e-003	1.267976e-001	3.980838e+000
2.007383259200562e-003	2.318222e-001	3.978911e+000
2.010731473486276e-003	3.367675e-001	3.976984e+000
2.014079687771990e-003	4.416335e-001	3.975059e+000
2.017427902057705e-003	5.464202e-001	3.973134e+000
2.025798437771990e-003	8.086859e-001	3.968327e+000
2.034168973486276e-003	1.066962e+000	3.963526e+000
2.042539509200562e-003	1.321249e+000	3.958730e+000
2.050910044914847e-003	1.571547e+000	3.953941e+000
2.059280580629133e-003	1.817855e+000	3.949157e+000
2.067651116343419e-003	2.060174e+000	3.944379e+000
2.076021652057705e-003	2.298503e+000	3.939607e+000
2.083834152057705e-003	2.514808e+000	3.935159e+000
2.091646652057705e-003	2.723847e+000	3.930715e+000
2.099459152057705e-003	2.925620e+000	3.926277e+000
2.107271652057705e-003	3.120128e+000	3.921843e+000
2.115084152057705e-003	3.307370e+000	3.917415e+000
2.122896652057705e-003	3.487347e+000	3.912992e+000
2.130709152057705e-003	3.660058e+000	3.908574e+000
2.134615402057705e-003	3.742554e+000	3.906367e+000
2.138521652057705e-003	3.822796e+000	3.904161e+000
2.142427902057705e-003	3.900735e+000	3.901957e+000
2.146334152057705e-003	3.976325e+000	3.899754e+000
2.150240402057705e-003	4.049520e+000	3.897553e+000
2.154146652057705e-003	4.120275e+000	3.895359e+000
2.158052902057705e-003	4.188548e+000	3.893184e+000
2.161959152057705e-003	4.254298e+000	3.891079e+000
2.165865402057705e-003	4.317486e+000	3.889210e+000
2.169771652057705e-003	4.378073e+000	3.888094e+000
2.173677902057705e-003	4.436023e+000	3.889105e+000
2.177584152057705e-003	4.491300e+000	3.895053e+000
2.181490402057705e-003	4.543873e+000	3.909687e+000
2.185396652057705e-003	4.593708e+000	3.935267e+000
2.189302902057705e-003	4.640776e+000	3.970357e+000
2.193209152057705e-003	4.685049e+000	4.010786e+000
2.197115402057705e-003	4.726499e+000	4.052541e+000
2.201021652057705e-003	4.765103e+000	4.093266e+000
2.204927902057705e-003	4.800836e+000	4.131936e+000
2.208834152057705e-003	4.833716e+000	4.168168e+000
2.212740402057705e-003	4.863644e+000	4.201804e+000
2.216646652057705e-003	4.890620e+000	4.232845e+000
2.220552902057705e-003	4.914645e+000	4.261290e+000
2.224459152057705e-003	4.935719e+000	4.287139e+000
2.228365402057705e-003	4.953841e+000	4.310392e+000
2.232271652057705e-003	4.969012e+000	4.331049e+000
2.240084152057705e-003	4.990299e+000	4.365091e+000
2.243990402057705e-003	4.996436e+000	4.378580e+000
2.247896652057705e-003	4.999563e+000	4.389840e+000
2.251802902057705e-003	4.999679e+000	4.398993e+000
2.255709152057705e-003	4.996783e+000	4.406180e+000
2.259615402057705e-003	4.990878e+000	4.411561e+000
2.263521652057705e-003	4.981966e+000	4.415317e+000
2.267427902057705e-003	4.970053e+000	4.417646e+000
2.271334152057705e-003	4.955146e+000	4.418758e+000
2.275240402057705e-003	4.937254e+000	4.418868e+000
2.279146652057705e-003	4.916389e+000	4.418180e+000
2.283052902057705e-003	4.892562e+000	4.416888e+000
2.286959152057705e-003	4.865788e+000	4.415158e+000
2.290865402057705e-003	4.836083e+000	4.413127e+000
2.294771652057705e-003	4.803465e+000	4.410901e+000
2.298677902057705e-003	4.767953e+000	4.408554e+000
2.302584152057705e-003	4.729570e+000	4.406137e+000
2.306490402057705e-003	4.688337e+000	4.403684e+000
2.310396652057705e-003	4.644281e+000	4.401211e+000
2.314302902057705e-003	4.597426e+000	4.398731e+000
2.318209152057705e-003	4.547803e+000	4.396247e+000
2.322115402057705e-003	4.495440e+000	4.393763e+000
2.326021652057705e-003	4.440370e+000	4.391278e+000
2.329927902057705e-003	4.382624e+000	4.388796e+000
2.333834152057705e-003	4.322239e+000	4.386314e+000
2.337740402057705e-003	4.259250e+000	4.383834e+000
2.346668973486277e-003	4.104249e+000	4.378171e+000
2.355597544914848e-003	3.937752e+000	4.372514e+000
2.364526116343419e-003	3.759758e+000	4.366865e+000
2.373454687771991e-003	3.570267e+000	4.361224e+000
2.382383259200562e-003	3.369279e+000	4.355589e+000
2.391311830629133e-003	3.156794e+000	4.349962e+000
2.400240402057705e-003	2.932813e+000	4.344343e+000
2.410285044914848e-003	2.668728e+000	4.338029e+000
2.420329687771991e-003	2.396815e+000	4.331725e+000
2.430374330629133e-003	2.117075e+000	4.325430e+000
2.440418973486277e-003	1.829507e+000	4.319144e+000
2.450463616343419e-003	1.534112e+000	4.312867e+000
2.460508259200562e-003	1.230889e+000	4.306599e+000
2.470552902057705e-003	9.198387e-001	4.300341e+000
2.474459152057705e-003	7.987662e-001	4.297909e+000
2.478365402057705e-003	6.773959e-001	4.295479e+000
2.482271652057705e-003	5.557278e-001	4.293051e+000
2.486177902057705e-003	4.337618e-001	4.290623e+000
2.490084152057705e-003	3.114979e-001	4.288197e+000
2.493990402057705e-003	1.889362e-001	4.285773e+000
2.497896652057705e-003	6.607670e-002	4.283350e+000
2.501244866343419e-003	-3.922441e-002	4.281274e+000
2.504593080629133e-003	-1.443920e-001	4.279199e+000
2.507941294914848e-003	-2.494260e-001	4.277126e+000
2.511289509200562e-003	-3.543265e-001	4.275053e+000
2.514637723486277e-003	-4.590935e-001	4.272981e+000
2.517985937771991e-003	-5.637269e-001	4.270910e+000
2.521334152057705e-003	-6.682268e-001	4.268841e+000
2.530262723486277e-003	-9.471123e-001	4.263326e+000
2.539191294914848e-003	-1.220912e+000	4.257819e+000
2.548119866343420e-003	-1.489625e+000	4.252319e+000
2.557048437771991e-003	-1.753251e+000	4.246826e+000
2.565977009200562e-003	-2.011792e+000	4.241341e+000
