time	V(n002)	V(n003)
0.000000000000000e+000	0.000000e+000	9.994888e-004
2.642640383165262e-008	8.302100e-004	1.005619e-003
5.285280766330524e-008	1.660420e-003	1.084321e-003
7.927921149495786e-008	2.490630e-003	1.235594e-003
1.057056153266105e-007	3.320839e-003	1.459439e-003
1.321320191582631e-007	4.151049e-003	1.755856e-003
1.585584229899157e-007	4.981259e-003	2.124844e-003
1.849848268215683e-007	5.811468e-003	2.566404e-003
2.481183096081037e-007	7.794864e-003	3.790900e-003
3.554148115934110e-007	1.116568e-002	6.145700e-003
4.672936526973638e-007	1.468044e-002	8.704860e-003
5.945000031176817e-007	1.867672e-002	1.161014e-002
7.399443081155027e-007	2.324595e-002	1.490972e-002
1.024000140362349e-006	3.216969e-002	2.145891e-002
1.496725404068851e-006	4.702032e-002	3.296133e-002
2.055738351271065e-006	6.458113e-002	4.817272e-002
2.563863293054282e-006	8.054265e-002	6.462987e-002
3.155961447027375e-006	9.914096e-002	8.676451e-002
3.485053711712821e-006	1.094774e-001	9.963883e-002
3.736239417930916e-006	1.173666e-001	1.091241e-001
4.064939417111686e-006	1.276900e-001	1.207800e-001
4.846622212307187e-006	1.522376e-001	1.466349e-001
6.465147978486119e-006	2.030528e-001	1.980906e-001
9.542934063482476e-006	2.996205e-001	2.951309e-001
1.603113501167481e-005	5.027817e-001	4.986530e-001
2.774988501167481e-005	8.673779e-001	8.634743e-001
3.723649215453197e-005	1.161649e+000	1.157832e+000
4.672309929738913e-005	1.449310e+000	1.445584e+000
5.620970644024628e-005	1.730360e+000	1.726731e+000
6.569631358310343e-005	2.004799e+000	2.001272e+000
7.518292072596059e-005	2.272627e+000	2.269207e+000
8.466952786881775e-005	2.533844e+000	2.530537e+000
9.415613501167487e-005	2.788451e+000	2.785262e+000
1.097811350116749e-004	3.189196e+000	3.186248e+000
1.254061350116749e-004	3.551595e+000	3.548916e+000
1.410311350116749e-004	3.875647e+000	3.873265e+000
1.566561350116749e-004	4.161352e+000	4.159296e+000
1.722811350116750e-004	4.408711e+000	4.407009e+000
1.879061350116750e-004	4.617724e+000	4.616402e+000
2.035311350116750e-004	4.788390e+000	4.787478e+000
2.264105992973893e-004	4.939862e+000	4.939602e+000
2.492900635831036e-004	4.992715e+000	4.993101e+000
2.721695278688179e-004	4.946949e+000	4.947976e+000
2.950489921545322e-004	4.802565e+000	4.804226e+000
3.179284564402465e-004	4.559561e+000	4.561852e+000
3.408079207259608e-004	4.217939e+000	4.220854e+000
3.636873850116751e-004	3.777698e+000	3.781231e+000
3.754061350116751e-004	3.522492e+000	3.526309e+000
3.871248850116751e-004	3.252104e+000	3.256191e+000
3.988436350116751e-004	2.966534e+000	2.970876e+000
4.105623850116751e-004	2.665781e+000	2.670365e+000
4.222811350116751e-004	2.349846e+000	2.354658e+000
4.339998850116752e-004	2.018730e+000	2.023754e+000
4.457186350116751e-004	1.672431e+000	1.677653e+000
4.512989921545323e-004	1.505699e+000	1.510996e+000
4.568793492973895e-004	1.337637e+000	1.343022e+000
4.624597064402466e-004	1.168246e+000	1.173732e+000
4.680400635831038e-004	9.975257e-001	1.003126e+000
4.736204207259609e-004	8.254755e-001	8.312033e-001
4.792007778688180e-004	6.520958e-001	6.579641e-001
4.847811350116752e-004	4.773864e-001	4.834085e-001
4.886873850116751e-004	3.550971e-001	3.613324e-001
4.925936350116751e-004	2.325938e-001	2.392482e-001
4.964998850116751e-004	1.099505e-001	1.176384e-001
4.985277027744990e-004	4.625292e-002	5.542326e-002
4.998684405452399e-004	4.133062e-003	1.570095e-002
5.008798134814456e-004	-2.764001e-002	-1.226993e-002
5.017386344721798e-004	-5.461973e-002	-3.342012e-002
5.025654590218465e-004	-8.059278e-002	-5.068154e-002
5.033600290474987e-004	-1.055506e-001	-6.365468e-002
5.043796332599983e-004	-1.375729e-001	-7.450480e-002
5.054106520886098e-004	-1.699479e-001	-7.850296e-002
5.066418608428168e-004	-2.085997e-001	-7.644183e-002
5.078997746013130e-004	-2.480768e-001	-7.167748e-002
5.092774699533217e-004	-2.912953e-001	-6.687049e-002
5.109854266438932e-004	-3.448434e-001	-6.268414e-002
5.144013400250361e-004	-4.518143e-001	-5.753595e-002
5.183075900250361e-004	-5.738823e-001	-5.433320e-002
5.222138400250361e-004	-6.956047e-001	-5.281590e-002
5.261200900250361e-004	-8.169081e-001	-5.227770e-002
5.300263400250361e-004	-9.377194e-001	-5.235815e-002
5.339325900250361e-004	-1.057966e+000	-5.285283e-002
5.378388400250361e-004	-1.177575e+000	-5.364351e-002
5.417450900250361e-004	-1.296475e+000	-5.464912e-002
5.456513400250361e-004	-1.414594e+000	-4.632949e-002
5.495575900250361e-004	-1.531861e+000	-2.557664e-002
5.500458712750360e-004	-1.546456e+000	-2.670392e-002
5.510224337750360e-004	-1.575601e+000	-3.256209e-002
5.527241025071340e-004	-1.626246e+000	-3.393443e-002
5.545191004608825e-004	-1.679467e+000	-3.485448e-002
5.573174406241331e-004	-1.762008e+000	-3.658402e-002
5.612236906241331e-004	-1.876312e+000	-3.878730e-002
5.740585120527045e-004	-2.248826e+000	-4.609366e-002
5.868933334812760e-004	-2.601377e+000	-5.300855e-002
5.997281549098474e-004	-2.933967e+000	-5.953199e-002
6.125629763384188e-004	-3.246595e+000	-6.566397e-002
6.253977977669904e-004	-3.539260e+000	-7.140448e-002
6.382326191955618e-004	-3.811964e+000	-7.675354e-002
6.510674406241332e-004	-4.064705e+000	-8.171114e-002
6.812013691955618e-004	-4.543764e+000	-9.111177e-002
7.113352977669904e-004	-4.851109e+000	-9.714590e-002
7.414692263384190e-004	-4.986738e+000	-9.981354e-002
7.716031549098476e-004	-4.950654e+000	-9.911468e-002
8.017370834812762e-004	-4.742855e+000	-9.504932e-002
8.318710120527048e-004	-4.363341e+000	-8.761747e-002
8.620049406241334e-004	-3.812112e+000	-7.681912e-002
8.737236906241334e-004	-3.559795e+000	-7.187517e-002
8.854424406241334e-004	-3.292062e+000	-6.662876e-002
8.971611906241334e-004	-3.008912e+000	-6.107989e-002
9.088799406241334e-004	-2.710346e+000	-5.522857e-002
9.205986906241334e-004	-2.396363e+000	-4.907478e-002
9.323174406241334e-004	-2.066963e+000	-4.261854e-002
9.440361906241334e-004	-1.722147e+000	-3.585985e-002
9.507326191955620e-004	-1.522273e+000	-3.194232e-002
9.574290477669905e-004	-1.320605e+000	-2.798935e-002
9.641254763384192e-004	-1.117145e+000	-2.400095e-002
9.708219049098477e-004	-9.118925e-001	-1.997711e-002
9.775183334812762e-004	-7.048471e-001	-1.591784e-002
9.842147620527048e-004	-4.960090e-001	-1.182314e-002
9.909111906241334e-004	-2.853782e-001	-7.692995e-003
9.948174406241334e-004	-1.627861e-001	-5.258796e-003
9.965496056025963e-004	-1.083888e-001	-4.082710e-003
9.976503300633565e-004	-7.381438e-002	-3.143224e-003
9.983642709185587e-004	-5.138704e-002	-2.256257e-003
9.990844528135309e-004	-2.876261e-002	-7.976770e-004
9.999320785239016e-004	-2.133816e-003	1.966156e-003
1.000327192704355e-003	1.027905e-002	4.088198e-003
1.000734997914698e-003	2.309056e-002	7.180027e-003
1.001107729343400e-003	3.480006e-002	1.039478e-002
1.001853192200805e-003	5.821843e-002	1.642246e-002
1.002855918129170e-003	8.971650e-002	2.231421e-002
1.004301535832098e-003	1.351203e-001	2.726885e-002
1.005422989335630e-003	1.703353e-001	2.933848e-002
1.006686049445741e-003	2.099867e-001	3.078669e-002
1.014574273796932e-003	4.572247e-001	3.866999e-002
1.018480523796932e-003	5.792790e-001	4.293174e-002
1.022386773796932e-003	7.009844e-001	4.760864e-002
1.026293023796932e-003	8.222675e-001	5.289715e-002
1.030199273796932e-003	9.430553e-001	5.914725e-002
1.034105523796932e-003	1.063275e+000	6.708176e-002
1.038011773796932e-003	1.182854e+000	7.857363e-002
1.041918023796932e-003	1.301721e+000	9.913136e-002
1.044703479823562e-003	1.386008e+000	1.430803e-001
1.045951137839388e-003	1.423625e+000	2.211013e-001
1.046532585138816e-003	1.441126e+000	3.207786e-001
1.047232235914490e-003	1.462159e+000	5.049048e-001
1.047648641435923e-003	1.474664e+000	6.251811e-001
1.048173396840604e-003	1.490409e+000	7.812108e-001
1.049222907649966e-003	1.521848e+000	1.099010e+000
1.050192569693410e-003	1.550838e+000	1.393027e+000
1.050575984869301e-003	1.562284e+000	1.501817e+000
1.050770196062464e-003	1.568079e+000	1.545469e+000
1.050905236127950e-003	1.572107e+000	1.565490e+000
1.050956309682457e-003	1.573630e+000	1.569837e+000
1.051024227774031e-003	1.575655e+000	1.573161e+000
1.051126559016710e-003	1.578706e+000	1.576406e+000
1.051277050375391e-003	1.583191e+000	1.580369e+000
1.051427541734072e-003	1.587675e+000	1.584451e+000
1.051578033092753e-003	1.592157e+000	1.588652e+000
1.051728524451435e-003	1.596638e+000	1.592973e+000
1.051879015810116e-003	1.601118e+000	1.597413e+000
1.052029507168797e-003	1.605596e+000	1.601972e+000
1.052179998527478e-003	1.610073e+000	1.606651e+000
1.063988817042085e-003	1.960861e+000	1.957442e+000
1.075797635556691e-003	2.296490e+000	2.293117e+000
1.087606454071298e-003	2.616962e+000	2.613677e+000
1.099415272585904e-003	2.922275e+000	2.919121e+000
1.111224091100511e-003	3.212430e+000	3.209449e+000
1.123032909615117e-003	3.487427e+000	3.484661e+000
1.134841728129724e-003	3.747265e+000	3.744758e+000
1.157721192415438e-003	4.193126e+000	4.191123e+000
1.180600656701152e-003	4.540567e+000	4.539100e+000
1.203480120986866e-003	4.789590e+000	4.788689e+000
1.226359585272581e-003	4.940193e+000	4.939889e+000
1.249239049558295e-003	4.992376e+000	4.992701e+000
1.272118513844010e-003	4.946141e+000	4.947124e+000
1.294997978129724e-003	4.801486e+000	4.803159e+000
1.310622978129724e-003	4.635191e+000	4.637317e+000
1.326247978129724e-003	4.430289e+000	4.432850e+000
1.341872978129724e-003	4.186782e+000	4.189759e+000
1.357497978129724e-003	3.904668e+000	3.908042e+000
1.373122978129724e-003	3.583947e+000	3.587702e+000
1.388747978129724e-003	3.224620e+000	3.228736e+000
1.404372978129724e-003	2.826687e+000	2.831146e+000
1.413859585272581e-003	2.573568e+000	2.578212e+000
1.423346192415438e-003	2.313687e+000	2.318510e+000
1.432832799558295e-003	2.047044e+000	2.052041e+000
1.442319406701152e-003	1.773639e+000	1.778806e+000
1.451806013844010e-003	1.493471e+000	1.498803e+000
1.461292620986867e-003	1.206541e+000	1.212033e+000
1.470779228129724e-003	9.128489e-001	9.184968e-001
1.482497978129724e-003	5.487347e-001	5.546690e-001
1.486404228129724e-003	4.266045e-001	4.327019e-001
1.490310478129724e-003	3.042173e-001	3.105866e-001
1.494216728129724e-003	1.816469e-001	1.886177e-001
1.497619891442318e-003	7.477053e-002	8.310560e-002
1.499190455229646e-003	2.543249e-002	3.554220e-002
1.500383359849026e-003	-1.204359e-002	1.209055e-003
1.501356613381690e-003	-4.261875e-002	-2.435226e-002
1.502174925224813e-003	-6.832516e-002	-4.291304e-002
1.503033843965807e-003	-9.530525e-002	-5.878361e-002
1.503899685850824e-003	-1.225000e-001	-7.036778e-002
1.504906010626091e-003	-1.541025e-001	-7.746437e-002
1.505985512792569e-003	-1.879961e-001	-7.812197e-002
1.507449929294655e-003	-2.339610e-001	-7.337780e-002
1.508787716714561e-003	-2.759340e-001	-6.841052e-002
1.510227894074069e-003	-3.210976e-001	-6.433036e-002
1.512875892174251e-003	-4.040670e-001	-5.945770e-002
1.516782142174251e-003	-5.262501e-001	-5.533619e-002
1.520688392174251e-003	-6.481162e-001	-5.326205e-002
1.524594642174251e-003	-7.695919e-001	-5.239942e-002
1.528500892174251e-003	-8.906040e-001	-5.226834e-002
1.532407142174251e-003	-1.011080e+000	-5.261910e-002
1.536313392174251e-003	-1.130946e+000	-5.330525e-002
1.540219642174251e-003	-1.250132e+000	-5.423466e-002
1.544125892174251e-003	-1.368564e+000	-5.040419e-002
1.548032142174251e-003	-1.486172e+000	-3.611379e-002
1.548520423424251e-003	-1.500812e+000	-3.392538e-002
1.549496985924251e-003	-1.530048e+000	-3.217913e-002
1.551450110924251e-003	-1.588347e+000	-3.311333e-002
1.554065758455406e-003	-1.666046e+000	-3.469389e-002
1.557972008455406e-003	-1.781238e+000	-3.692449e-002
1.570248794169692e-003	-2.140680e+000	-4.397381e-002
1.582525579883978e-003	-2.482615e+000	-5.067991e-002
1.594802365598264e-003	-2.807043e+000	-5.704278e-002
1.607079151312549e-003	-3.113964e+000	-6.306243e-002
1.619355937026835e-003	-3.403378e+000	-6.873884e-002
1.631632722741121e-003	-3.675285e+000	-7.407203e-002
1.643909508455406e-003	-3.929685e+000	-7.906199e-002
1.675159508455406e-003	-4.463575e+000	-8.953790e-002
1.706409508455406e-003	-4.813267e+000	-9.640259e-002
1.737659508455406e-003	-4.978763e+000	-9.965606e-002
1.768909508455406e-003	-4.960061e+000	-9.929831e-002
1.800159508455406e-003	-4.757162e+000	-9.532935e-002
1.831409508455407e-003	-4.370066e+000	-8.774918e-002
1.862659508455407e-003	-3.798774e+000	-7.655779e-002
1.874378258455407e-003	-3.545329e+000	-7.159171e-002
1.886097008455407e-003	-3.276559e+000	-6.632497e-002
1.897815758455407e-003	-2.992464e+000	-6.075755e-002
1.909534508455407e-003	-2.693043e+000	-5.488946e-002
1.921253258455407e-003	-2.378297e+000	-4.872069e-002
1.932972008455407e-003	-2.048225e+000	-4.225126e-002
1.944690758455407e-003	-1.702827e+000	-3.548114e-002
1.951387187026835e-003	-1.502673e+000	-3.155850e-002
1.958083615598264e-003	-1.300761e+000	-2.760088e-002
1.964780044169692e-003	-1.097092e+000	-2.360828e-002
1.971476472741121e-003	-8.916660e-001	-1.958070e-002
1.978172901312549e-003	-6.844830e-001	-1.551814e-002
1.984869329883978e-003	-4.755428e-001	-1.142060e-002
1.991565758455406e-003	-2.648455e-001	-7.288085e-003
1.995472008455406e-003	-1.422319e-001	-4.828769e-003
1.996966701068309e-003	-9.528813e-002	-3.753636e-003
1.997966364912530e-003	-6.388679e-002	-2.790348e-003
1.998638646183014e-003	-4.276767e-002	-1.779752e-003
1.999480494212461e-003	-1.632073e-002	2.212203e-004
1.999985353504589e-003	-4.601332e-004	2.129707e-003
2.000327815236060e-003	1.029861e-002	4.068939e-003
2.000668031417567e-003	2.098676e-002	6.623222e-003
2.001119117569106e-003	3.515783e-002	1.046724e-002
2.002021289872185e-003	6.349899e-002	1.765125e-002
2.002893199711405e-003	9.088755e-002	2.272883e-002
2.004111689206590e-003	1.291582e-001	2.693672e-002
2.005166797543369e-003	1.622912e-001	2.898707e-002
2.006425288980434e-003	2.018016e-001	3.051233e-002
2.013893486807160e-003	4.359226e-001	3.796355e-002
2.017799736807160e-003	5.580302e-001	4.216586e-002
2.021705986807160e-003	6.798017e-001	4.675932e-002
2.025612236807160e-003	8.011637e-001	5.192292e-002
2.029518486807160e-003	9.220431e-001	5.796999e-002
2.033424736807160e-003	1.042367e+000	6.553014e-002
2.037330986807160e-003	1.162063e+000	7.615437e-002
2.041237236807160e-003	1.281059e+000	9.401244e-002
2.044071054669532e-003	1.366907e+000	1.211966e-001
2.045462898334305e-003	1.408915e+000	1.642722e-001
2.046099778228470e-003	1.428101e+000	2.275890e-001
2.046511497112640e-003	1.440492e+000	3.102576e-001
2.047011472794562e-003	1.455526e+000	4.433286e-001
2.047465528635042e-003	1.469167e+000	5.731646e-001
2.047959881632542e-003	1.484004e+000	7.190164e-001
2.048948587627541e-003	1.513637e+000	1.017209e+000
2.050193032008826e-003	1.550851e+000	1.394628e+000
2.050561471776455e-003	1.561851e+000	1.499484e+000
2.050760715604153e-003	1.567796e+000	1.544751e+000
2.050892182525505e-003	1.571718e+000	1.564695e+000
2.050943379257663e-003	1.573244e+000	1.569189e+000
2.051012640733045e-003	1.575310e+000	1.572707e+000
2.051119946516913e-003	1.578509e+000	1.576195e+000
2.051268344157209e-003	1.582932e+000	1.580103e+000
2.051416741797504e-003	1.587353e+000	1.584129e+000
2.051565139437800e-003	1.591773e+000	1.588272e+000
2.051713537078096e-003	1.596192e+000	1.592532e+000
2.051861934718392e-003	1.600609e+000	1.596910e+000
2.052010332358687e-003	1.605025e+000	1.601406e+000
2.052158729998983e-003	1.609440e+000	1.606018e+000
2.063961944263951e-003	1.960078e+000	1.956659e+000
2.075765158528919e-003	2.295578e+000	2.292204e+000
2.087568372793888e-003	2.615940e+000	2.612654e+000
2.099371587058856e-003	2.921164e+000	2.918009e+000
2.111174801323824e-003	3.211249e+000	3.208267e+000
2.122978015588793e-003	3.486197e+000	3.483431e+000
2.134781229853761e-003	3.746007e+000	3.743498e+000
2.157102658425189e-003	4.182082e+000	4.180063e+000
2.179424086996618e-003	4.524644e+000	4.523145e+000
2.201745515568046e-003	4.773693e+000	4.772745e+000
2.224066944139475e-003	4.929228e+000	4.928862e+000
2.246388372710904e-003	4.991251e+000	4.991496e+000
2.268709801282332e-003	4.959761e+000	4.960647e+000
2.291031229853761e-003	4.834757e+000	4.836316e+000
2.306656229853761e-003	4.680319e+000	4.682333e+000
2.322281229853761e-003	4.486591e+000	4.489042e+000
2.337906229853761e-003	4.253572e+000	4.256443e+000
2.353531229853761e-003	3.981263e+000	3.984536e+000
2.369156229853761e-003	3.669663e+000	3.673322e+000
2.384781229853761e-003	3.318773e+000	3.322799e+000
2.400406229853761e-003	2.928592e+000	2.932968e+000
2.410450872710904e-003	2.664321e+000	2.668897e+000
2.420495515568047e-003	2.392242e+000	2.397011e+000
2.430540158425189e-003	2.112354e+000	2.117310e+000
2.440584801282333e-003	1.824657e+000	1.829795e+000
2.450629444139475e-003	1.529153e+000	1.534466e+000
2.460674086996618e-003	1.225839e+000	1.231322e+000
2.470718729853761e-003	9.147175e-001	9.203642e-001
2.482437479853761e-003	5.506238e-001	5.565560e-001
2.486343729853761e-003	4.284981e-001	4.345924e-001
2.490249979853761e-003	3.061144e-001	3.124779e-001
2.494156229853761e-003	1.835462e-001	1.905057e-001
2.497627643418552e-003	7.452702e-002	8.286983e-002
2.499197975807564e-003	2.519623e-002	3.532341e-002
2.500397447959765e-003	-1.248618e-002	8.202086e-004
2.501363490903266e-003	-4.283481e-002	-2.452471e-002
2.502181233629249e-003	-6.852333e-002	-4.304817e-002
2.503036220198295e-003	-9.537988e-002	-5.882619e-002
2.503901794694433e-003	-1.225662e-001	-7.015719e-002
2.505065436655277e-003	-1.591085e-001	-7.779458e-002
2.506121914012016e-003	-1.922782e-001	-7.799201e-002
2.507495645513507e-003	-2.353956e-001	-7.324851e-002
2.508964727555024e-003	-2.814863e-001	-6.785166e-002
2.510458108138670e-003	-3.283148e-001	-6.375621e-002
2.512997670815068e-003	-4.078801e-001	-5.925477e-002
2.516903920815068e-003	-5.300545e-001	-5.524658e-002
2.520810170815068e-003	-6.519095e-001	-5.322115e-002
2.524716420815068e-003	-7.733719e-001	-5.238672e-002
2.528622670815068e-003	-8.943684e-001	-5.227347e-002
2.532528920815068e-003	-1.014826e+000	-5.263650e-002
2.536435170815068e-003	-1.134673e+000	-5.333130e-002
2.540341420815068e-003	-1.253836e+000	-5.426715e-002
2.544247670815068e-003	-1.372243e+000	-5.008330e-002
2.548153920815068e-003	-1.489825e+000	-3.525083e-002
2.548642202065069e-003	-1.504460e+000	-3.332654e-002
2.549618764565068e-003	-1.533690e+000	-3.219779e-002
2.551571889565068e-003	-1.591974e+000	-3.318894e-002
2.554525908983520e-003	-1.679669e+000	-3.494810e-002
2.566244658983520e-003	-2.021564e+000	-4.163796e-002
2.579637516126377e-003	-2.404574e+000	-4.914925e-002
2.593030373269235e-003	-2.764675e+000	-5.621154e-002
2.606423230412092e-003	-3.101868e+000	-6.282484e-002
2.619816087554949e-003	-3.416151e+000	-6.898914e-002
2.633208944697806e-003	-3.707526e+000	-7.470445e-002
2.646601801840663e-003	-3.975992e+000	-7.997077e-002
2.659994658983520e-003	-4.221550e+000	-8.478809e-002
2.688454480412092e-003	-4.632229e+000	-9.284790e-002
2.716914301840663e-003	-4.889192e+000	-9.789403e-002
2.745374123269235e-003	-4.992439e+000	-9.992647e-002
2.773833944697806e-003	-4.941971e+000	-9.894524e-002
2.802293766126378e-003	-4.737787e+000	-9.495033e-002
2.830753587554949e-003	-4.379887e+000	-8.794173e-002
2.859213408983520e-003	-3.868271e+000	-7.791945e-002
2.871490194697806e-003	-3.608089e+000	-7.282148e-002
2.883766980412092e-003	-3.330871e+000	-6.738926e-002
2.896043766126378e-003	-3.036615e+000	-6.162281e-002
2.908320551840663e-003	-2.725324e+000	-5.552211e-002
2.920597337554949e-003	-2.396995e+000	-4.908718e-002
2.932874123269235e-003	-2.051630e+000	-4.231800e-002
2.945150908983521e-003	-1.689228e+000	-3.521458e-002
2.951847337554949e-003	-1.488879e+000	-3.128863e-002
2.958543766126378e-003	-1.286797e+000	-2.732786e-002
2.965240194697806e-003	-1.082984e+000	-2.333229e-002
2.971936623269235e-003	-8.774381e-001	-1.930190e-002
2.978633051840663e-003	-6.701603e-001	-1.523670e-002
2.985329480412092e-003	-4.611505e-001	-1.113670e-002
2.992025908983521e-003	-2.504086e-001	-7.001877e-003
2.995932158983521e-003	-1.277811e-001	-4.502557e-003
2.997429935624043e-003	-8.073744e-002	-3.317332e-003
2.998455796532157e-003	-4.851182e-002	-2.085556e-003
