time	V(n002)	V(n003)
0.000000000000000e+000	0.000000e+000	9.994860e-004
2.643688461304140e-008	8.305393e-004	1.005810e-003
5.287376922608281e-008	1.661078e-003	1.084426e-003
7.931065383912420e-008	2.491618e-003	1.235334e-003
1.057475384521656e-007	3.322157e-003	1.458533e-003
1.321844230652070e-007	4.152696e-003	1.754024e-003
1.586213076782484e-007	4.983234e-003	2.121807e-003
1.850581922912898e-007	5.813773e-003	2.561881e-003
2.483070474652032e-007	7.800793e-003	3.782162e-003
3.560790621576836e-007	1.118654e-002	6.132342e-003
4.687715675706678e-007	1.472687e-002	8.691425e-003
5.964391974169296e-007	1.873765e-002	1.158532e-002
7.436687566353338e-007	2.336296e-002	1.490261e-002
1.035033682855890e-006	3.251631e-002	2.158298e-002
1.500098816810684e-006	4.712630e-002	3.287962e-002
2.071026321463010e-006	6.506138e-002	4.848957e-002
2.579786168900426e-006	8.104283e-002	6.512911e-002
3.161217343674542e-006	9.930604e-002	8.706882e-002
3.472027822418571e-006	1.090683e-001	9.927537e-002
3.720436842512132e-006	1.168703e-001	1.086578e-001
4.039130802330532e-006	1.268794e-001	1.199616e-001
4.805428811550939e-006	1.509441e-001	1.453176e-001
6.411031726009397e-006	2.013540e-001	1.963769e-001
9.479691229592067e-006	2.976372e-001	2.931397e-001
1.591238808369772e-005	4.990700e-001	4.949343e-001
2.763113808369772e-005	8.637037e-001	8.597969e-001
3.711774522655487e-005	1.158021e+000	1.154201e+000
4.660435236941203e-005	1.445739e+000	1.442011e+000
5.609095951226917e-005	1.726860e+000	1.723228e+000
6.557756665512633e-005	2.001381e+000	1.997852e+000
7.506417379798348e-005	2.269304e+000	2.265882e+000
8.455078094084064e-005	2.530628e+000	2.527319e+000
9.403738808369777e-005	2.785354e+000	2.782162e+000
1.096623880836978e-004	3.186324e+000	3.183374e+000
1.252873880836978e-004	3.548970e+000	3.546288e+000
1.409123880836978e-004	3.873290e+000	3.870905e+000
1.565373880836979e-004	4.159284e+000	4.157225e+000
1.721623880836979e-004	4.406953e+000	4.405247e+000
1.877873880836979e-004	4.616297e+000	4.614972e+000
2.034123880836979e-004	4.787315e+000	4.786400e+000
2.262918523694122e-004	4.939337e+000	4.939073e+000
2.491713166551265e-004	4.992724e+000	4.993106e+000
2.720507809408408e-004	4.947476e+000	4.948499e+000
2.949302452265551e-004	4.803594e+000	4.805252e+000
3.178097095122694e-004	4.561078e+000	4.563365e+000
3.406891737979837e-004	4.219927e+000	4.222838e+000
3.635686380836980e-004	3.780141e+000	3.783671e+000
3.752873880836980e-004	3.525138e+000	3.528952e+000
3.870061380836980e-004	3.254936e+000	3.259021e+000
3.987248880836980e-004	2.969536e+000	2.973876e+000
4.104436380836981e-004	2.668936e+000	2.673518e+000
4.221623880836981e-004	2.353138e+000	2.357948e+000
4.338811380836981e-004	2.022141e+000	2.027164e+000
4.455998880836981e-004	1.675946e+000	1.681167e+000
4.511802452265552e-004	1.509256e+000	1.514552e+000
4.567606023694124e-004	1.341231e+000	1.346616e+000
4.623409595122696e-004	1.171873e+000	1.177359e+000
4.679213166551267e-004	1.001181e+000	1.006781e+000
4.735016737979838e-004	8.291546e-001	8.348813e-001
4.790820309408410e-004	6.557942e-001	6.616608e-001
4.846623880836981e-004	4.810998e-001	4.871191e-001
4.885686380836981e-004	3.588181e-001	3.650475e-001
4.924748880836981e-004	2.363203e-001	2.429586e-001
4.963811380836981e-004	1.136801e-001	1.213220e-001
4.984618581270647e-004	4.832140e-002	5.743233e-002
4.998061701773777e-004	6.089342e-003	1.753677e-002
5.008159558864665e-004	-2.563390e-002	-1.045626e-002
5.016876986484246e-004	-5.301962e-002	-3.197734e-002
5.025099483184826e-004	-7.884908e-002	-4.914993e-002
5.032987682903630e-004	-1.036264e-001	-6.202718e-002
5.042814789979153e-004	-1.344904e-001	-7.253128e-002
5.053096740723862e-004	-1.667774e-001	-7.666904e-002
5.065151459051549e-004	-2.046222e-001	-7.485521e-002
5.077746179458277e-004	-2.441497e-001	-7.018197e-002
5.091471851515201e-004	-2.872091e-001	-6.543162e-002
5.108124645231935e-004	-3.394223e-001	-6.135621e-002
5.141430232665402e-004	-4.437316e-001	-5.631181e-002
5.180492732665402e-004	-5.658200e-001	-5.307152e-002
5.219555232665402e-004	-6.875675e-001	-5.152202e-002
5.258617732665402e-004	-8.089008e-001	-5.095526e-002
5.297680232665402e-004	-9.297469e-001	-5.100599e-002
5.336742732665402e-004	-1.050033e+000	-5.146914e-002
5.375805232665402e-004	-1.169686e+000	-5.222609e-002
5.414867732665402e-004	-1.288635e+000	-5.319640e-002
5.453930232665402e-004	-1.406808e+000	-4.573150e-002
5.492992732665402e-004	-1.524134e+000	-2.641386e-002
5.497875545165402e-004	-1.538736e+000	-2.703786e-002
5.507641170165402e-004	-1.567898e+000	-3.163359e-002
5.527172420165402e-004	-1.626042e+000	-3.305589e-002
5.546571750581117e-004	-1.683552e+000	-3.406739e-002
5.580221950538363e-004	-1.782711e+000	-3.604264e-002
5.619284450538363e-004	-1.896816e+000	-3.820689e-002
5.747632664824077e-004	-2.268573e+000	-4.531508e-002
5.875980879109792e-004	-2.620256e+000	-5.203953e-002
6.004329093395506e-004	-2.951865e+000	-5.838025e-002
6.132677307681220e-004	-3.263399e+000	-6.433725e-002
6.261025521966936e-004	-3.554860e+000	-6.991051e-002
6.389373736252650e-004	-3.826246e+000	-7.510004e-002
6.517721950538364e-004	-4.077559e+000	-7.990584e-002
6.819061236252650e-004	-4.552631e+000	-8.899402e-002
7.120400521966936e-004	-4.856021e+000	-9.480087e-002
7.421739807681222e-004	-4.987730e+000	-9.732637e-002
7.723079093395508e-004	-4.947757e+000	-9.657054e-002
8.024418379109794e-004	-4.736102e+000	-9.253336e-002
8.325757664824080e-004	-4.352766e+000	-8.521485e-002
8.627096950538366e-004	-3.797748e+000	-7.461499e-002
8.744284450538366e-004	-3.544218e+000	-6.977191e-002
8.861471950538366e-004	-3.275369e+000	-6.463585e-002
8.978659450538366e-004	-2.991201e+000	-5.920679e-002
9.095846950538366e-004	-2.691715e+000	-5.348476e-002
9.213034450538366e-004	-2.376910e+000	-4.746974e-002
9.330221950538366e-004	-2.046787e+000	-4.116173e-002
9.447409450538366e-004	-1.701345e+000	-3.456074e-002
9.514373736252652e-004	-1.501169e+000	-3.073621e-002
9.581338021966937e-004	-1.299238e+000	-2.687761e-002
9.648302307681224e-004	-1.095554e+000	-2.298494e-002
9.715266593395509e-004	-8.901146e-001	-1.905820e-002
9.782230879109796e-004	-6.829211e-001	-1.509738e-002
9.849195164824080e-004	-4.739733e-001	-1.110250e-002
9.916159450538366e-004	-2.632711e-001	-7.073546e-003
9.955221950538366e-004	-1.406558e-001	-4.672800e-003
9.970170858001981e-004	-9.370553e-002	-3.615556e-003
9.980185507226032e-004	-6.224746e-002	-2.655448e-003
9.986903650779334e-004	-4.114293e-002	-1.630230e-003
9.995682599232589e-004	-1.356350e-002	5.066778e-004
1.000043518014948e-003	1.367159e-003	2.369152e-003
1.000375096674296e-003	1.178400e-002	4.301350e-003
1.000701289704181e-003	2.203159e-002	6.777810e-003
1.001225638722096e-003	3.850419e-002	1.118847e-002
1.002113519820111e-003	6.639623e-002	1.791826e-002
1.003024117994622e-003	9.499975e-002	2.284219e-002
1.004178221574507e-003	1.312476e-001	2.650467e-002
1.005188435910222e-003	1.629706e-001	2.831961e-002
1.006415788820196e-003	2.015034e-001	2.974681e-002
1.013955076064295e-003	4.378501e-001	3.708063e-002
1.017861326064295e-003	5.599530e-001	4.118492e-002
1.021767576064295e-003	6.817185e-001	4.567286e-002
1.025673826064295e-003	8.030735e-001	5.072146e-002
1.029580076064295e-003	9.239447e-001	5.664049e-002
1.033486326064295e-003	1.044259e+000	6.405454e-002
1.037392576064295e-003	1.163945e+000	7.451227e-002
1.041298826064295e-003	1.282930e+000	9.219587e-002
1.044104713373451e-003	1.367924e+000	1.192377e-001
1.045467316004537e-003	1.409048e+000	1.624266e-001
1.046091196580893e-003	1.427842e+000	2.260851e-001
1.046506597795293e-003	1.440344e+000	3.105576e-001
1.047001505798531e-003	1.455226e+000	4.426715e-001
1.047476412363425e-003	1.469493e+000	5.785744e-001
1.047976994950733e-003	1.484518e+000	7.263312e-001
1.048978160125348e-003	1.514522e+000	1.028310e+000
1.050228533752689e-003	1.551912e+000	1.406354e+000
1.050594786868323e-003	1.562845e+000	1.508209e+000
1.050794173917352e-003	1.568794e+000	1.551163e+000
1.050898591157446e-003	1.571909e+000	1.565707e+000
1.050943462107232e-003	1.573247e+000	1.569325e+000
1.051006921790398e-003	1.575139e+000	1.572553e+000
1.051140052718871e-003	1.579108e+000	1.576669e+000
1.051324681193182e-003	1.584610e+000	1.581691e+000
1.051509309667494e-003	1.590110e+000	1.586824e+000
1.051693938141806e-003	1.595609e+000	1.592068e+000
1.051878566616118e-003	1.601104e+000	1.597423e+000
1.052063195090430e-003	1.606598e+000	1.602890e+000
1.052247823564741e-003	1.612090e+000	1.608467e+000
1.052432452039053e-003	1.617579e+000	1.614157e+000
1.064498465293739e-003	1.975854e+000	1.972438e+000
1.076564478548425e-003	2.318135e+000	2.314770e+000
1.088630491803111e-003	2.644424e+000	2.641152e+000
1.100696505057797e-003	2.954720e+000	2.951584e+000
1.112762518312483e-003	3.249022e+000	3.246067e+000
1.124828531567169e-003	3.527332e+000	3.524599e+000
1.136894544821855e-003	3.789649e+000	3.787182e+000
1.160890080536141e-003	4.247005e+000	4.245078e+000
1.184885616250426e-003	4.595538e+000	4.594181e+000
1.208881151964712e-003	4.835248e+000	4.834492e+000
1.232876687678998e-003	4.966135e+000	4.966011e+000
1.256872223393284e-003	4.988198e+000	4.988737e+000
1.280867759107570e-003	4.901439e+000	4.902670e+000
1.304863294821855e-003	4.705857e+000	4.707811e+000
1.319930259107569e-003	4.518837e+000	4.521222e+000
1.334997223393284e-003	4.297227e+000	4.300024e+000
1.350064187678998e-003	4.041026e+000	4.044217e+000
1.365131151964712e-003	3.750235e+000	3.753801e+000
1.380198116250427e-003	3.424854e+000	3.428776e+000
1.395265080536141e-003	3.064882e+000	3.069143e+000
1.410332044821855e-003	2.670321e+000	2.674901e+000
1.419818651964713e-003	2.411310e+000	2.416063e+000
1.429305259107570e-003	2.146153e+000	2.151079e+000
1.438791866250427e-003	1.874852e+000	1.879949e+000
1.448278473393284e-003	1.597404e+000	1.602672e+000
1.457765080536141e-003	1.313811e+000	1.319249e+000
1.467251687678998e-003	1.024073e+000	1.029680e+000
1.476738294821855e-003	7.281889e-001	7.339644e-001
1.484550794821855e-003	4.845892e-001	4.906038e-001
1.488457044821855e-003	3.623148e-001	3.685364e-001
1.492363294821855e-003	2.398221e-001	2.464428e-001
1.496269544821855e-003	1.171850e-001	1.247796e-001
1.498410748675939e-003	4.992697e-002	5.898031e-002
1.499763718016405e-003	7.423015e-003	1.875937e-002
1.500781394975446e-003	-2.454815e-002	-9.537064e-003
1.501663356933717e-003	-5.225495e-002	-3.141435e-002
1.502485585172381e-003	-7.808378e-002	-4.869269e-002
1.503273334945573e-003	-1.028276e-001	-6.167813e-002
1.504244817134481e-003	-1.333390e-001	-7.220837e-002
1.505305064676567e-003	-1.666327e-001	-7.667508e-002
1.506445144346063e-003	-2.024248e-001	-7.511847e-002
1.509169904322393e-003	-2.879217e-001	-6.535186e-002
1.510719519391684e-003	-3.365091e-001	-6.151008e-002
1.513818749530265e-003	-4.335836e-001	-5.667188e-002
1.517724999530265e-003	-5.556969e-001	-5.326410e-002
1.521631249530265e-003	-6.774755e-001	-5.160601e-002
1.525537499530265e-003	-7.988460e-001	-5.097521e-002
1.529443749530265e-003	-9.197353e-001	-5.098383e-002
1.533349999530265e-003	-1.040071e+000	-5.141820e-002
1.537256249530265e-003	-1.159779e+000	-5.215415e-002
1.541162499530265e-003	-1.278790e+000	-5.310910e-002
1.545068749530265e-003	-1.397030e+000	-4.657764e-002
1.548974999530265e-003	-1.514428e+000	-2.857056e-002
1.549463280780265e-003	-1.529040e+000	-2.850569e-002
1.550439843280265e-003	-1.558221e+000	-3.154875e-002
1.552392968280265e-003	-1.616405e+000	-3.289019e-002
1.554983900034865e-003	-1.693214e+000	-3.429165e-002
1.558890150034865e-003	-1.808160e+000	-3.651760e-002
1.571166935749150e-003	-2.166705e+000	-4.337067e-002
1.583443721463436e-003	-2.507607e+000	-4.988700e-002
1.595720507177722e-003	-2.830864e+000	-5.606659e-002
1.607997292892007e-003	-3.136478e+000	-6.190944e-002
1.620274078606293e-003	-3.424447e+000	-6.741555e-002
1.632550864320579e-003	-3.694773e+000	-7.258493e-002
1.644827650034865e-003	-3.947454e+000	-7.741757e-002
1.676077650034865e-003	-4.476042e+000	-8.752876e-002
1.707327650034865e-003	-4.820458e+000	-9.411991e-002
1.738577650034865e-003	-4.980702e+000	-9.719103e-002
1.769827650034865e-003	-4.956773e+000	-9.674211e-002
1.801077650034865e-003	-4.748673e+000	-9.277315e-002
1.832327650034865e-003	-4.356400e+000	-8.528415e-002
1.863577650034865e-003	-3.779956e+000	-7.427512e-002
1.875296400034865e-003	-3.524937e+000	-6.940359e-002
1.887015150034865e-003	-3.254721e+000	-6.424139e-002
1.898733900034865e-003	-2.969308e+000	-5.878851e-002
1.910452650034865e-003	-2.668697e+000	-5.304496e-002
1.922171400034865e-003	-2.352888e+000	-4.701074e-002
1.933890150034865e-003	-2.021882e+000	-4.068585e-002
1.945608900034865e-003	-1.675679e+000	-3.407028e-002
1.952305328606294e-003	-1.475137e+000	-3.024007e-002
1.959001757177722e-003	-1.272889e+000	-2.637586e-002
1.965698185749151e-003	-1.068933e+000	-2.247766e-002
1.972394614320579e-003	-8.632696e-001	-1.854546e-002
1.979091042892008e-003	-6.558994e-001	-1.457926e-002
1.985787471463437e-003	-4.468220e-001	-1.057906e-002
1.992483900034865e-003	-2.360375e-001	-6.544870e-003
1.996390150034865e-003	-1.133971e-001	-4.043572e-003
1.997893638956612e-003	-6.617136e-002	-2.736543e-003
1.998834348649426e-003	-3.661969e-002	-1.291734e-003
1.999732108955868e-003	-8.416042e-003	1.110835e-003
2.000188446423633e-003	5.920218e-003	3.157580e-003
2.000524437513928e-003	1.647566e-002	5.366329e-003
2.000868321878790e-003	2.727900e-002	8.159372e-003
2.001556090608516e-003	4.888525e-002	1.383948e-002
2.002550928363281e-003	8.013634e-002	2.043341e-002
2.003633420156803e-003	1.141373e-001	2.507448e-002
2.004630182233788e-003	1.454410e-001	2.745347e-002
2.005757333133319e-003	1.808325e-001	2.903047e-002
2.008930175522521e-003	2.804025e-001	3.217613e-002
2.015542596181768e-003	4.875093e-001	3.871106e-002
2.019448846181768e-003	6.094840e-001	4.295352e-002
2.023355096181768e-003	7.310915e-001	4.764264e-002
2.027261346181768e-003	8.522586e-001	5.299560e-002
2.031167596181768e-003	9.729124e-001	5.941678e-002
2.035073846181768e-003	1.092980e+000	6.778051e-002
2.038980096181768e-003	1.212389e+000	8.056292e-002
2.042886346181768e-003	1.331069e+000	1.042478e-001
2.044885291440127e-003	1.391495e+000	1.414016e-001
2.045918062482658e-003	1.422629e+000	2.074635e-001
2.046392458446475e-003	1.436910e+000	2.867438e-001
2.047029016564895e-003	1.456053e+000	4.502587e-001
2.047425358545673e-003	1.467960e+000	5.630745e-001
2.047911838740548e-003	1.482563e+000	7.065008e-001
2.048884799130298e-003	1.511727e+000	9.996304e-001
2.050166212151763e-003	1.550050e+000	1.388223e+000
2.050548767489769e-003	1.561472e+000	1.497462e+000
2.050750934102730e-003	1.567504e+000	1.543645e+000
2.050889482160615e-003	1.571637e+000	1.564736e+000
2.050941990647491e-003	1.573203e+000	1.569315e+000
2.051012111882955e-003	1.575294e+000	1.572772e+000
2.051124221211966e-003	1.578636e+000	1.576304e+000
2.051282822684518e-003	1.583363e+000	1.580514e+000
2.051441424157071e-003	1.588088e+000	1.584843e+000
2.051600025629623e-003	1.592812e+000	1.589291e+000
2.051758627102176e-003	1.597534e+000	1.593857e+000
2.051917228574728e-003	1.602255e+000	1.598542e+000
2.052075830047281e-003	1.606974e+000	1.603346e+000
2.052234431519833e-003	1.611692e+000	1.608269e+000
2.064065033078897e-003	1.963086e+000	1.959667e+000
2.075895634637961e-003	2.299247e+000	2.295874e+000
2.087726236197024e-003	2.620176e+000	2.616892e+000
2.099556837756088e-003	2.925872e+000	2.922720e+000
2.111387439315152e-003	3.216336e+000	3.213357e+000
2.123218040874216e-003	3.491567e+000	3.488805e+000
2.135048642433279e-003	3.751566e+000	3.749062e+000
2.157928106718994e-003	4.196638e+000	4.194640e+000
2.180807571004708e-003	4.543263e+000	4.541800e+000
2.203687035290422e-003	4.791440e+000	4.790544e+000
2.226566499576137e-003	4.941169e+000	4.940870e+000
2.249445963861851e-003	4.992450e+000	4.992780e+000
2.272325428147565e-003	4.945283e+000	4.946272e+000
2.295204892433280e-003	4.799669e+000	4.801347e+000
2.310829892433280e-003	4.632758e+000	4.634889e+000
2.326454892433280e-003	4.427277e+000	4.429843e+000
2.342079892433280e-003	4.183226e+000	4.186208e+000
2.357704892433280e-003	3.900606e+000	3.903986e+000
2.373329892433280e-003	3.579415e+000	3.583174e+000
2.388954892433280e-003	3.219654e+000	3.223775e+000
2.404579892433280e-003	2.821323e+000	2.825787e+000
2.414066499576137e-003	2.567994e+000	2.572641e+000
2.423553106718994e-003	2.307923e+000	2.312750e+000
2.433039713861851e-003	2.041112e+000	2.046113e+000
2.442526321004708e-003	1.767560e+000	1.772731e+000
2.452012928147565e-003	1.487266e+000	1.492603e+000
2.461499535290423e-003	1.200232e+000	1.205730e+000
2.470986142433280e-003	9.064569e-001	9.121106e-001
2.482704892433280e-003	5.422731e-001	5.482166e-001
2.486611142433280e-003	4.201274e-001	4.262379e-001
2.490517392433280e-003	2.977287e-001	3.041210e-001
2.494423642433280e-003	1.751506e-001	1.821714e-001
2.497672446514916e-003	7.311964e-002	8.150311e-002
2.499219238398335e-003	2.452825e-002	3.471293e-002
2.500386310045062e-003	-1.213628e-002	1.208473e-003
2.501357391744874e-003	-4.264320e-002	-2.416819e-002
2.502170023095380e-003	-6.817117e-002	-4.243299e-002
2.503021820839020e-003	-9.492759e-002	-5.792098e-002
2.503885528549714e-003	-1.220554e-001	-6.915526e-002
2.504889709767980e-003	-1.535906e-001	-7.586285e-002
2.505956785663514e-003	-1.870943e-001	-7.627402e-002
2.507416054379025e-003	-2.328979e-001	-7.151363e-002
2.508768631772269e-003	-2.753353e-001	-6.659960e-002
2.510198666346043e-003	-3.201813e-001	-6.267513e-002
2.512970824540334e-003	-4.070395e-001	-5.776705e-002
2.516877074540334e-003	-5.292158e-001	-5.382784e-002
2.520783324540334e-003	-6.510733e-001	-5.185936e-002
2.524689574540334e-003	-7.725386e-001	-5.104834e-002
2.528595824540334e-003	-8.935386e-001	-5.094010e-002
2.532502074540334e-003	-1.014000e+000	-5.129497e-002
2.536408324540334e-003	-1.133851e+000	-5.197342e-002
2.540314574540334e-003	-1.253019e+000	-5.288628e-002
2.544220824540334e-003	-1.371432e+000	-4.878820e-002
2.548127074540334e-003	-1.489019e+000	-3.431103e-002
2.548615355790334e-003	-1.503656e+000	-3.244617e-002
2.549591918290334e-003	-1.532887e+000	-3.137053e-002
2.551545043290334e-003	-1.591175e+000	-3.234245e-002
2.554493169396657e-003	-1.678700e+000	-3.405286e-002
2.566211919396657e-003	-2.020624e+000	-4.057556e-002
2.579604776539514e-003	-2.403673e+000	-4.789892e-002
2.592997633682371e-003	-2.763818e+000	-5.478466e-002
2.606390490825228e-003	-3.101061e+000	-6.123278e-002
2.619783347968085e-003	-3.415400e+000	-6.724329e-002
2.633176205110942e-003	-3.706836e+000	-7.281618e-002
2.646569062253799e-003	-3.975369e+000	-7.795145e-002
2.659961919396657e-003	-4.220998e+000	-8.264911e-002
2.688421740825228e-003	-4.631855e+000	-9.050972e-002
2.716881562253800e-003	-4.888994e+000	-9.543228e-002
2.745341383682371e-003	-4.992415e+000	-9.741681e-002
2.773801205110942e-003	-4.942119e+000	-9.646330e-002
2.802261026539514e-003	-4.738104e+000	-9.257175e-002
2.830720847968086e-003	-4.380372e+000	-8.574216e-002
2.859180669396657e-003	-3.868922e+000	-7.597453e-002
2.871457455110942e-003	-3.608801e+000	-7.100565e-002
2.883734240825229e-003	-3.331637e+000	-6.571083e-002
2.896011026539514e-003	-3.037432e+000	-6.009008e-002
2.908287812253800e-003	-2.726186e+000	-5.414338e-002
2.920564597968085e-003	-2.397898e+000	-4.787076e-002
2.932841383682371e-003	-2.052568e+000	-4.127219e-002
2.945118169396657e-003	-1.690196e+000	-3.434769e-002
2.951814597968085e-003	-1.489861e+000	-3.052052e-002
2.958511026539514e-003	-1.287791e+000	-2.665941e-002
2.965207455110943e-003	-1.083988e+000	-2.276436e-002
2.971903883682371e-003	-8.784506e-001	-1.883538e-002
2.978600312253800e-003	-6.711795e-001	-1.487246e-002
2.985296740825229e-003	-4.621747e-001	-1.087560e-002
2.991993169396657e-003	-2.514359e-001	-6.844798e-003
2.995899419396657e-003	-1.288093e-001	-4.411857e-003
2.997396838242016e-003	-8.177710e-002	-3.266038e-003
2.998420392626025e-003	-4.962401e-002	-2.089323e-003
2.999128956065117e-003	-2.736451e-002	-6.520948e-004
3.000011901323326e-003	3.738911e-004	2.332247e-003
3.000404002703606e-003	1.269211e-002	4.513911e-003
